(1762308698.725604) vcan0 009#82194EFCC4A465186
(1762308698.735598) vcan0 009#82394EF4C40D6F086
(1762308698.745593) vcan0 009#823948F4C2C5AB085
(1762308698.755629) vcan0 009#8278CEFCB12DE6F83
(1762308698.765666) vcan0 009#8278CEFCAFB892F80
(1762308698.775660) vcan0 009#827940F4AEC852F7D
(1762308698.785654) vcan0 009#82B9C6F49E2B12F7B
(1762308698.787499) vcan0 009#82B9C0F49DE09307A
(1762308698.796682) vcan0 009#8279CCFC8DD65707A
(1762308698.806676) vcan0 009#8239CCFC8E1B5707B
(1762308698.816713) vcan0 009#81D942F49EBF5D07C
(1762308698.826707) vcan0 009#81B8CAF49F81D117E
(1762308698.836744) vcan0 009#8178C2F4A0412517E
(1762308698.846738) vcan0 009#815948F4A0EDAD07D
(1762308698.856732) vcan0 009#81594EF4A157E907C
(1762308698.866769) vcan0 009#8159CCF4A19FEEF7A
(1762308698.873520) vcan0 009#81BAC2FCA111E6F77
(1762308698.882789) vcan0 009#81DB4AFC90AE6CE75
(1762308698.892783) vcan0 009#81FBC2F4904E68E74
(1762308698.902777) vcan0 009#821BCAF48FD114F74
(1762308698.912814) vcan0 009#823BC6FC8F2594F74
(1762308698.922808) vcan0 009#825B42FC8E6A14F74
(1762308698.932845) vcan0 009#823B4EFC7D9D96F74
(1762308698.942839) vcan0 009#825ACAFC7CEF9CF74
(1762308698.952833) vcan0 009#825AC8FC7C7191075
(1762308698.962827) vcan0 009#825AC8FC7C53D3075
(1762308698.966421) vcan0 009#825A48FC7C8559075
(1762308698.975860) vcan0 009#823948F47D0651076
(1762308698.985897) vcan0 009#8218CAF47D7599076
(1762308698.995891) vcan0 009#81F84CFC7DD35D076
(1762308699.005928) vcan0 009#81F7CCF47E3F9EF76
(1762308699.015922) vcan0 009#8217CAFC7E5B9AF76
(1762308699.025916) vcan0 009#8217CAF47E7956F76
(1762308699.035953) vcan0 009#82184AFC7EA912F76
(1762308699.045947) vcan0 009#82184CFC7EEA14F76
(1762308699.055941) vcan0 009#81D84EF47F3B1AF76
(1762308699.056088) vcan0 009#81B7CEF47F8B5EF76
(1762308699.065646) vcan0 009#81B7C0F48FBC1AF76
(1762308699.075640) vcan0 009#819742FC8FDD5AF75
(1762308699.085677) vcan0 009#819746FC800F62F74
(1762308699.095671) vcan0 009#81974AF48020E7072
(1762308699.105665) vcan0 009#81774EF4802129070
(1762308699.115701) vcan0 009#817740F49FF09306F
(1762308699.125696) vcan0 009#817744F49FAF1EF6D
(1762308699.135732) vcan0 009#8196C8F49F6C96F6C
(1762308699.145684) vcan0 009#81D6CAFC9F3AD2F6A
(1762308699.146070) vcan0 009#81F64AFC9F1A54F67
(1762308699.155584) vcan0 009#82364AF49F0B1AF64
(1762308699.165578) vcan0 009#8275C8FC9EFD1AF62
(1762308699.175615) vcan0 009#82B544F49F0FD8F61
(1762308699.185609) vcan0 009#82D540FC9F1395061
(1762308699.195646) vcan0 009#82D64CF48F48D5062
(1762308699.205640) vcan0 009#82B842F49FE15D164
(1762308699.215677) vcan0 009#827AC6FCA13CEF168
(1762308699.225671) vcan0 009#821AC4FCC3686526E
(1762308699.235665) vcan0 009#817AC8F4D57BAF273
(1762308699.241990) vcan0 009#80B948FCE622E1279
(1762308699.251685) vcan0 009#80984AFCE5A16B17C
(1762308699.261722) vcan0 009#80D7C8F4D3DBA6F7D
(1762308699.271716) vcan0 009#81B742F4C109ECE7B
(1762308699.281710) vcan0 009#821748FCAE5052E77
(1762308699.291747) vcan0 009#8296C0F49C829AE72
(1762308699.301741) vcan0 009#82D74EF47B4CD2E6F
(1762308699.311735) vcan0 009#8336C6F47B0BD6F6C
(1762308699.321772) vcan0 009#831746F47BDA5B06B
(1762308699.328480) vcan0 010#16300000000000000
(1762308699.328806) vcan0 002#603F8DC2AF32A0000
(1762308699.328807) vcan0 003#8A93BA9CEE7C89E08
(1762308699.329149) vcan0 004#4B7E2290000000000
(1762308699.329628) vcan0 005#8110ED9D47CCAEF2E
(1762308699.329995) vcan0 006#84902002000B40000
(1762308699.330379) vcan0 007#5EB08801500000000
(1762308699.330645) vcan0 008#20100000000000000
(1762308699.331125) vcan0 009#8256CEF47EC09B270
(1762308699.340138) vcan0 009#8235CAF48026ED274
(1762308699.350132) vcan0 009#81D5C4F490D527277
(1762308699.360168) vcan0 009#81B54CF4911F21179
(1762308699.370162) vcan0 009#81754EF490E627179
(1762308699.380199) vcan0 009#81754EF4908BAB078
(1762308699.390193) vcan0 009#81B5C8FC9021ED076
(1762308699.400230) vcan0 009#81D742FC9FD9D8F74
(1762308699.410224) vcan0 009#8217CAFC8FA51EF72
(1762308699.414373) vcan0 009#8258C2F48FF71CF72
(1762308699.424239) vcan0 009#8238C0FC8FEA92F74
(1762308699.434233) vcan0 009#821840FC8F8CD0F76
(1762308699.444270) vcan0 009#81D740F48F0DDAF77
(1762308699.454264) vcan0 009#81D6C0F48E6D12F78
(1762308699.464300) vcan0 009#81B640FC8DCB90F77
(1762308699.474295) vcan0 009#81B64EFC7D5A16F75
(1762308699.484289) vcan0 009#81D64CFC7D491AF73
(1762308699.494283) vcan0 009#81D6C8F47DAA14F72
(1762308699.503423) vcan0 009#8196CCFC7EAF96F73
(1762308699.513332) vcan0 009#815640FC8F5215075
(1762308699.523326) vcan0 009#813546F48FE1D3077
(1762308699.533363) vcan0 009#8134CCF4804F62F78
(1762308699.543357) vcan0 009#8134CAFC809BE6F78
(1762308699.553394) vcan0 009#8134CCFC80D9E6F78
(1762308699.563388) vcan0 009#81554AFC80FA26F78
(1762308699.573382) vcan0 009#8195CAF4810CEAF78
(1762308699.583419) vcan0 009#81D648F48101A3079
(1762308699.593413) vcan0 009#81B648F480D7A107A
(1762308699.594054) vcan0 009#81B64AFC808D2B07B
(1762308699.603398) vcan0 009#81D5CCF48040A117D
(1762308699.613435) vcan0 009#81D54EF48FF15717D
(1762308699.623471) vcan0 009#81D540FC9FA05B17C
(1762308699.633465) vcan0 009#81F5C0FC9F8E1507B
(1762308699.643460) vcan0 009#823740FC9F8BDD079
(1762308699.653454) vcan0 009#8279C2F49FAB1B078
(1762308699.663490) vcan0 009#82DB48F4900D65078
(1762308699.673484) vcan0 009#82DC4CF49060A1179
(1762308699.683479) vcan0 009#827CC2F4A062A517B
(1762308699.684043) vcan0 009#827CCCFCAFF15D17E
(1762308699.693525) vcan0 009#829C40FCBFAD1B081
(1762308699.703519) vcan0 009#829C40F4BF6755083
(1762308699.713556) vcan0 009#82FCC0FCBF12D1084
(1762308699.723550) vcan0 009#831CC0FCBEE0DD083
(1762308699.733544) vcan0 009#831DC0F4BEF19B083
(1762308699.743581) vcan0 009#833DC2FCBF2291084
(1762308699.753575) vcan0 009#831DC8F4BF521D084
(1762308699.763612) vcan0 009#82FE4CFCBF8019085
(1762308699.773606) vcan0 009#82DE4EFCBFBCD4F86
(1762308699.774082) vcan0 009#829F4CFCBF9A9AF87
(1762308699.783597) vcan0 009#827F4CFCBF09DAF89
(1762308699.793634) vcan0 009#823ECAF4BE5A14F8C
(1762308699.803628) vcan0 009#821E48FCBD9A5EF8E
(1762308699.813622) vcan0 009#81DDC2F4BCC9D0F91
(1762308699.823659) vcan0 009#81FD4CFCAC0994F92
(1762308699.833653) vcan0 009#81FCC4F4ABAB1EF91
(1762308699.843689) vcan0 009#81DBC0FCABAEDCF90
(1762308699.853684) vcan0 009#81DACEFC9C239308F
(1762308699.862142) vcan0 009#817846FCAE1A5708B
(1762308699.871709) vcan0 009#81374AF4AF4995089
(1762308699.881703) vcan0 009#80F6CCF4A025A1087
(1762308699.891740) vcan0 009#81164CF4A0CFA0F85
(1762308699.901734) vcan0 009#8136CAF4A1496EF82
(1762308699.911728) vcan0 009#817748FCA1B42CF80
(1762308699.921765) vcan0 009#81B7C4FCA240A6F7E
(1762308699.931759) vcan0 009#81B8C0F4A2DDEAE7C
(1762308699.941796) vcan0 009#81B94CFC932AE0E7C
(1762308699.951790) vcan0 009#81B94AFC934822E7C
(1762308699.952952) vcan0 009#81B9C6FC93252AE7C
(1762308699.962818) vcan0 009#81DA40FC92C3A4E7D
(1762308699.972812) vcan0 009#81DACAFC822466E7E
(1762308699.982806) vcan0 009#81DAC4FC816762E80
(1762308699.992843) vcan0 009#81DAC0F4809BEAE82
(1762308700.002837) vcan0 009#81DACEFC7FC0D2F85
(1762308700.012873) vcan0 009#81DA4AF47F14D0F87
(1762308700.022868) vcan0 009#81D9CAF47EA792F88
(1762308700.032862) vcan0 009#81D948FC7E6A10F88
(1762308700.042344) vcan0 009#81B8CAF47E5E9CF85
(1762308700.051911) vcan0 009#81B84EF47EAF98F84
(1762308700.061905) vcan0 009#819840F48F1E9AF83
(1762308700.071899) vcan0 009#819844F48FAC54F83
(1762308700.081936) vcan0 009#8177C8F48058E2F83
(1762308700.091930) vcan0 009#81574CFC80F4AEF82
(1762308700.101967) vcan0 009#81574CFC816028F82
(1762308700.111961) vcan0 009#8177CCFC818CACE81
(1762308700.121955) vcan0 009#81784AF4817B6EE80
(1762308700.131437) vcan0 009#81B948F4810F6CE7F
(1762308700.140962) vcan0 009#81B948F480B428F7F
(1762308700.150999) vcan0 009#81B94CFC805968F7F
(1762308700.160993) vcan0 009#81994EF4800EA8F7F
(1762308700.171029) vcan0 009#819944FC9F931907F
(1762308700.181023) vcan0 009#8199C8FC9F35D507F
(1762308700.191015) vcan0 009#819A48FC9EC6D907E
(1762308700.201041) vcan0 009#819AC8F49E46D707D
(1762308700.211035) vcan0 009#81DBC8F49DB65507C
(1762308700.221019) vcan0 009#821CC6F49D56DF07A
(1762308700.224041) vcan0 009#823DC4F49D09D107A
(1762308700.234025) vcan0 009#825EC8FC9CDF1F079
(1762308700.244062) vcan0 009#823ECCFC9D051117B
(1762308700.254056) vcan0 009#81FEC4FCAD381717D
(1762308700.264050) vcan0 009#81DE44F4AD6711180
(1762308700.274086) vcan0 009#81FDCCF4AD649D181
(1762308700.284071) vcan0 009#81FDCAFCAD81D1182
(1762308700.294055) vcan0 009#81DDC6F4ADC01F181
(1762308700.304081) vcan0 009#81FD4AFCAE1ED1082
(1762308700.314065) vcan0 009#81FCCCF4AEDD97082
(1762308700.322553) vcan0 009#81BC4EFCAFAB55083
(1762308700.322553) vcan0 010#15B00000000000000
(1762308700.322553) vcan0 002#603E0E02AF32A0000
(1762308700.323065) vcan0 003#8B73BA90EE8C89E08
(1762308700.323374) vcan0 004#4C7E2290000000000
(1762308700.323728) vcan0 005#8110E99DD70040059
(1762308700.324197) vcan0 006#84B02002000B40000
(1762308700.324591) vcan0 007#55D06401000000000
(1762308700.324900) vcan0 008#20100000000000000
(1762308700.331310) vcan0 009#817B44F4B067E1085
(1762308700.341304) vcan0 009#813A44FCB0E2EF086
(1762308700.351341) vcan0 009#80F944FCB10C64F88
(1762308700.361335) vcan0 009#80B840F4B0C5E8F88
(1762308700.371372) vcan0 009#80B748FCA0202CF87
(1762308700.381366) vcan0 009#80D64EFC9F4DD2E86
(1762308700.391402) vcan0 009#80F642F49E401EF83
(1762308700.400671) vcan0 009#80F5C8F48C789107F
(1762308700.410409) vcan0 009#811546F48CC01717E
(1762308700.420403) vcan0 009#8114CCF48D96D117E
(1762308700.430397) vcan0 009#811344FC9EEB1917D
(1762308700.440434) vcan0 009#80F2C0FCA05B2D17C
(1762308700.450428) vcan0 009#80B244FCA1A6AF17B
(1762308700.460465) vcan0 009#8091C6FCA28FE507B
(1762308700.470459) vcan0 009#8091C6F4A2E8AF07A
(1762308700.480496) vcan0 009#80B244FCA2B2E507A
(1762308700.490447) vcan0 009#80F340F4A24F6CF79
(1762308700.492036) vcan0 009#81344AF4918E68F79
(1762308700.501518) vcan0 009#8154C6F490B027079
(1762308700.511512) vcan0 009#8174C6F49023E9079
(1762308700.521506) vcan0 009#817544FC9FB79B079
(1762308700.531543) vcan0 009#815542F49F59DF079
(1762308700.541537) vcan0 009#8154C4F49EFB9507A
(1762308700.551574) vcan0 009#8134C2F49E8B9707A
(1762308700.561568) vcan0 009#8114C0F49E0B1507A
(1762308700.571562) vcan0 009#8114CEF48D8AD107A
(1762308700.581001) vcan0 009#8114CAFC8D0ADD079
(1762308700.590611) vcan0 009#8134C8F48D1A9F079
(1762308700.600605) vcan0 009#8174C8F48D3A5107A
(1762308700.610599) vcan0 009#8174C6F48D6A1307A
(1762308700.620636) vcan0 009#8153C6FC8D995F07A
(1762308700.630630) vcan0 009#815344F48DD85107C
(1762308700.640667) vcan0 009#815244FC8E071107D
(1762308700.650661) vcan0 009#813144F48E261B07D
(1762308700.660698) vcan0 009#8110C4FC8E355107E
(1762308700.670180) vcan0 009#815FC4EC8EA75707D
(1762308700.679705) vcan0 009#815FC6E48EF91707C
(1762308700.689699) vcan0 009#817F48E48F3A1707B
(1762308700.699693) vcan0 009#817F48E48F6A1907A
(1762308700.709730) vcan0 009#815EC6E48F6A5307A
(1762308700.719724) vcan0 009#815EC4E48F4A9107A
(1762308700.729718) vcan0 009#817EC4E48F1B1F079
(1762308700.739754) vcan0 009#815EC4E48EFC53079
(1762308700.749749) vcan0 009#815EC2EC8EFE9B078
(1762308700.759743) vcan0 009#815EC2EC8F1095178
(1762308700.760111) vcan0 009#815EC6EC8F629F177
(1762308700.769369) vcan0 009#815EC8E48FF49B177
(1762308700.779363) vcan0 009#815ECCEC8065E9177
(1762308700.789400) vcan0 009#815ECEEC8095E1177
(1762308700.799394) vcan0 009#815EC0E49094EF175
(1762308700.809388) vcan0 009#815F40E4906323174
(1762308700.819425) vcan0 009#817040F49010AD171
(1762308700.829419) vcan0 009#8190CEFC8FCE1706F
(1762308700.839456) vcan0 009#81914AFC8F9C1906D
(1762308700.849365) vcan0 009#8191CAFC8FC91706B
(1762308700.858463) vcan0 009#81924AFC80282D06A
(1762308700.868457) vcan0 009#8172C8F48077AD06A
(1762308700.878494) vcan0 009#81534AFC80872506B
(1762308700.888488) vcan0 009#81534AFC80672306C
(1762308700.898482) vcan0 009#81534CF480172B06C
(1762308700.908518) vcan0 009#81734CF48FC7D906C
(1762308700.918513) vcan0 009#8173CEFC8F899D06B
(1762308700.928549) vcan0 009#817342F49F9CD306B
(1762308700.938543) vcan0 009#817348FC9FDF9906A
(1762308700.940004) vcan0 009#81734CFC9020A516A
(1762308700.949571) vcan0 009#8172C0F4A05EA506A
(1762308700.959566) vcan0 009#8152C2F4A06B6906A
(1762308700.969602) vcan0 009#8172C2F4A067AF06A
(1762308700.979596) vcan0 009#819342FCA043E306B
(1762308700.989590) vcan0 009#81D3CEFC9020A506B
(1762308700.999627) vcan0 009#81F4CAFC900EA8F6B
(1762308701.009621) vcan0 009#8215C8FC9FEDD6F6C
(1762308701.019658) vcan0 009#825646F49FCE5EF6D
(1762308701.029609) vcan0 009#8276C6F49FBF5CF6F
(1762308701.030089) vcan0 009#827746F49FB053072
(1762308701.039656) vcan0 009#825746F49FB11D074
(1762308701.049693) vcan0 009#8256CAFC9FC1DD077
(1762308701.059687) vcan0 009#82364EF49FF21707A
(1762308701.069724) vcan0 009#8215C0FCA000A707C
(1762308701.079718) vcan0 009#8235C0FCA02EA6F7D
(1762308701.089712) vcan0 009#8255C0F4A05E2EF7D
(1762308701.099749) vcan0 009#8235C0F4A07FA6F7E
(1762308701.109743) vcan0 009#823642FCA0926B07F
(1762308701.118841) vcan0 009#8215C8F4A07767082
(1762308701.128749) vcan0 009#81D54CF4A03963083
(1762308701.138786) vcan0 009#81954EFCAFD997083
(1762308701.148780) vcan0 009#8174CCF4AF57DD082
(1762308701.158817) vcan0 009#8174C8FCAEB49F080
(1762308701.168811) vcan0 009#8194C4F4AE409B07D
(1762308701.178805) vcan0 009#81B54CFC9E0D5AF79
(1762308701.188842) vcan0 009#81D5C8F49E1C18F75
(1762308701.198836) vcan0 009#81F644FC9E5BD4F72
(1762308701.208830) vcan0 009#81D642FC9EBB12F70
(1762308701.209949) vcan0 009#81D74EF48EE8D6F6F
(1762308701.219858) vcan0 009#81F7CAF48ED656F6F
(1762308701.229852) vcan0 009#8217C6F48EB49CF6F
(1762308701.239889) vcan0 009#825842F48EA512F70
(1762308701.249883) vcan0 009#827840FC8EA81CF70
(1762308701.259877) vcan0 009#8278C2FC8EED5AF71
(1762308701.269914) vcan0 009#827846FC8F5395073
(1762308701.279908) vcan0 009#82584AF48FD899075
(1762308701.289945) vcan0 009#8237C0F4903BA1078
(1762308701.299939) vcan0 009#821746FC906CE107A
(1762308701.303320) vcan0 009#81D74AFC909DA307B
(1762308701.312972) vcan0 009#81F6CEF490BE6B07B
(1762308701.313183) vcan0 010#14B00000000000000
(1762308701.313567) vcan0 002#603C8E42AF32A0000
(1762308701.314046) vcan0 003#8C33BA9AEE8C89E08
(1762308701.314229) vcan0 004#4C7E2290000000000
(1762308701.314698) vcan0 005#8110E59E61C9D0854
(1762308701.315220) vcan0 006#84F02002000B40000
(1762308701.315521) vcan0 007#52B07202000000000
(1762308701.315777) vcan0 008#20100000000000000
(1762308701.322272) vcan0 009#81F6C0FCA09DEB07A
(1762308701.332309) vcan0 009#81F642F4A07DAF078
(1762308701.342303) vcan0 009#81D642F4A03C23077
(1762308701.352297) vcan0 009#81F6CEF49FE999075
(1762308701.362334) vcan0 009#8216C8FC9F76DF073
(1762308701.372328) vcan0 009#823742F49F1517072
(1762308701.382365) vcan0 009#82374CFC8EB51F070
(1762308701.387964) vcan0 009#8277C2F48E49D906F
(1762308701.397361) vcan0 009#8277C0F48E3CDF06F
(1762308701.407355) vcan0 009#82574EFC7E2F17071
(1762308701.417392) vcan0 009#8256CCFC7E2F93073
(1762308701.427386) vcan0 009#82364EF47E4F5D074
(1762308701.437423) vcan0 009#8215CCF47E7E11076
(1762308701.447417) vcan0 009#82154CF47EBCD1077
(1762308701.457453) vcan0 009#81F4CCFC7F1C57077
(1762308701.467447) vcan0 009#8214CEF47F8B55077
(1762308701.474156) vcan0 009#81F4C2F4807967076
(1762308701.483468) vcan0 009#81D4C4FC80C82B076
(1762308701.493462) vcan0 009#81D4C4FC80E62D076
(1762308701.503456) vcan0 009#81D4C6FC80D467076
(1762308701.513493) vcan0 009#81D54AFC80C3AD075
(1762308701.523487) vcan0 009#81F5CCF480A32D074
(1762308701.533523) vcan0 009#81F64EF48062EB073
(1762308701.543517) vcan0 009#8216CEFC8013AD072
(1762308701.553554) vcan0 009#81F742FC9FE55B072
(1762308701.563548) vcan0 009#81F7C6FC9FD7D3073
(1762308701.568209) vcan0 009#81D7CCF49FD913074
(1762308701.577563) vcan0 009#81B7C0F4AFA893075
(1762308701.587557) vcan0 009#8197C4FCAF56D1076
(1762308701.597594) vcan0 009#819748F4AF049F076
(1762308701.607588) vcan0 009#8196CAFCAEB1D1077
(1762308701.617582) vcan0 009#81964CF4AE8E96F76
(1762308701.627619) vcan0 009#81764CFCAE4B16F75
(1762308701.637613) vcan0 009#8195CAF4AE2814F74
(1762308701.647607) vcan0 009#81D546F4ADE69CF72
(1762308701.657601) vcan0 009#8214C0F4AD8696F71
(1762308701.658080) vcan0 009#82344CF49D5996F70
(1762308701.667648) vcan0 009#8233C6FC9D5E54F70
(1762308701.677684) vcan0 009#8233C8F49DB55F070
(1762308701.687679) vcan0 009#821440F4AE9E17072
(1762308701.697673) vcan0 009#819540F4BFF613175
(1762308701.707709) vcan0 009#80F642FCC159EF178
(1762308701.717703) vcan0 009#8076CEF4C247E917D
(1762308701.727740) vcan0 009#801744FCD2212D181
(1762308701.737734) vcan0 009#8016C2FCD0D5AF083
(1762308701.746192) vcan0 009#815744F4BC8154F7D
(1762308701.755760) vcan0 009#82174AF49ABD58E76
(1762308701.765754) vcan0 009#82774EF489A19AF6F
(1762308701.775748) vcan0 009#8297C4FC89A918F69
(1762308701.785785) vcan0 009#827840FC8AE35D065
(1762308701.795779) vcan0 009#8258C0FC8CBCDF064
(1762308701.805773) vcan0 009#82194AF48E7255166
(1762308701.815810) vcan0 009#81B944FC9FF313169
(1762308701.825846) vcan0 009#81594CFC91412516D
(1762308701.835200) vcan0 009#80F846F4A21527077
(1762308701.844853) vcan0 009#80D7C4F4A1D02B07B
(1762308701.854847) vcan0 009#80B7CEF4911D6AF7E
(1762308701.864884) vcan0 009#80D74AFC902D64F80
(1762308701.874878) vcan0 009#8117C4FC9F4F18F80
(1762308701.884872) vcan0 009#8157C2FC9EB39907F
(1762308701.894909) vcan0 009#813744F49E991307E
(1762308701.904903) vcan0 009#8116C4FC9E9BD107D
(1762308701.914897) vcan0 009#80F640F49E8A9907C
(1762308701.924934) vcan0 009#8115CCFC8E275907B
(1762308701.927930) vcan0 009#815546F48D92D5079
(1762308701.937924) vcan0 009#81754CF47CEF1EF75
(1762308701.947961) vcan0 009#8194C4FC7C7F5EF72
(1762308701.957998) vcan0 009#81D4C2FC7C825F070
(1762308701.967992) vcan0 009#81B542F47CD51F06F
(1762308701.977986) vcan0 009#8194C8FC7D879B070
(1762308701.987980) vcan0 009#81744CF47E4617072
(1762308701.998017) vcan0 009#8153C0F48ED055074
(1762308702.008011) vcan0 009#8133C0F48F38DEF75
(1762308702.018005) vcan0 009#815340FC8F7190F77
(1762308702.018062) vcan0 009#8173CCFC7FDC56E77
(1762308702.027236) vcan0 009#817448FC702A6CE77
(1762308702.037230) vcan0 009#819444FC706B28E78
(1762308702.047224) vcan0 009#81B446F470AEA8E79
(1762308702.057261) vcan0 009#81B448FC70D32AF7A
(1762308702.067255) vcan0 009#8193CAF471172EF7B
(1762308702.077292) vcan0 009#8192CEF47139E2F7D
(1762308702.087286) vcan0 009#819240F4813B6EF7D
(1762308702.097322) vcan0 009#817244F4814C22F7E
(1762308702.107316) vcan0 009#819246FC816D28F7E
(1762308702.107838) vcan0 009#819248FC819D6AF7E
(1762308702.117321) vcan0 009#81924AFC81DCAAF7E
(1762308702.127357) vcan0 009#81B2CAF4820B6EF7E
(1762308702.137351) vcan0 009#81D2CCF48229E0F7F
(1762308702.147345) vcan0 009#81F34AF4824924F7F
(1762308702.157382) vcan0 009#821348F48258ECF7F
(1762308702.167376) vcan0 009#8233C4FC8229EAF80
(1762308702.177413) vcan0 009#823346F481ECAAF81
(1762308702.187407) vcan0 009#8233C8F481AF28F82
(1762308702.196036) vcan0 009#8273CEFC8181ED082
(1762308702.205433) vcan0 009#8293C2FC91A223082
(1762308702.215427) vcan0 009#829444F491E269081
(1762308702.225463) vcan0 009#829446FC91F1A9081
(1762308702.235457) vcan0 009#82B4C8FC920FE0F82
(1762308702.245494) vcan0 009#82B4C8FC920D6EF82
(1762308702.255488) vcan0 009#82D4C6F491F9ECF83
(1762308702.265482) vcan0 009#82F544FC91D766F84
(1762308702.275519) vcan0 009#82F5C0F491D6E2F85
(1762308702.285513) vcan0 009#82F6C0F491D868F86
(1762308702.293161) vcan0 009#831740F491EBA6F88
(1762308702.302515) vcan0 009#82D740F491FF2EF8A
(1762308702.307261) vcan0 010#15B00000000000000
(1762308702.307655) vcan0 002#603B0E82AF32A0000
(1762308702.307884) vcan0 003#8CB3BA9AEE9C89E08
(1762308702.308225) vcan0 004#4D1E2290000000000
(1762308702.308705) vcan0 005#8110E59EEB49D8C63
(1762308702.309061) vcan0 006#85102002000B40000
(1762308702.309402) vcan0 007#57107602100000000
(1762308702.309711) vcan0 008#20100000000000000
(1762308702.312195) vcan0 009#82B742FC91D26108E
(1762308702.322189) vcan0 009#829644FC91C627091
(1762308702.332184) vcan0 009#8275C6FC91CAE1094
(1762308702.342220) vcan0 009#82554CF491D069195
(1762308702.352214) vcan0 009#8214C4FCA1F52D195
(1762308702.362251) vcan0 009#81F448FCA20661195
(1762308702.372245) vcan0 009#81D3CEF4A1B2A3193
(1762308702.374645) vcan0 009#81D4C4F4A0B32108C
(1762308702.384255) vcan0 009#82154AF4905C26F87
(1762308702.394291) vcan0 009#8256C4FC9027E0F83
(1762308702.404285) vcan0 009#82B8CEF4804768F7F
(1762308702.414280) vcan0 009#8299CEFC80CAE6F7D
(1762308702.424316) vcan0 009#823AC2FC91B0AB07D
(1762308702.434310) vcan0 009#821ACAFC92C723080
(1762308702.444304) vcan0 009#821A44FCA3A9ED082
(1762308702.454341) vcan0 009#81F9CEFCA44825084
(1762308702.464335) vcan0 009#81D942F4B4C367084
(1762308702.464857) vcan0 009#81F942FCB50C64F83
(1762308702.474382) vcan0 009#8239CEFCA4F6A6F81
(1762308702.484376) vcan0 009#829AC8F4A4A360F7F
(1762308702.494370) vcan0 009#82FBC4FCA423ACF7C
(1762308702.504407) vcan0 009#833C40FCA3A5ECF7B
(1762308702.514401) vcan0 009#835CCAFC9329E2F7C
(1762308702.524438) vcan0 009#837CCAFC927DA8F7D
(1762308702.534432) vcan0 009#839CC6FC91B0A707F
(1762308702.544426) vcan0 009#837BC4F490E363081
(1762308702.554420) vcan0 009#837B44F49004AD082
(1762308702.554942) vcan0 009#837AC4FC9F341F083
(1762308702.564467) vcan0 009#835A42FC9E8155084
(1762308702.574503) vcan0 009#837A40FC9E2D90F84
(1762308702.584498) vcan0 009#8379C0FC9E3956F83
(1762308702.594492) vcan0 009#8379CCF48E8418F82
(1762308702.604486) vcan0 009#8399C8F48ECED8E81
(1762308702.614522) vcan0 009#8399C4F48EFA1AE80
(1762308702.624517) vcan0 009#839A42FC8F16D4E80
(1762308702.634553) vcan0 009#839A4EF47F24D6E80
(1762308702.644547) vcan0 009#837A4CF47F2412E81
(1762308702.645085) vcan0 009#839ACEF47F24D2E82
(1762308702.654557) vcan0 009#839A40FC8F4710E83
(1762308702.664551) vcan0 009#835A46F48F995EE83
(1762308702.674545) vcan0 009#8359CCF48FDA9CE84
(1762308702.684582) vcan0 009#833940FC900A66E85
(1762308702.694576) vcan0 009#8338C6FC9018AAE85
(1762308702.704570) vcan0 009#831946F49FF518E85
(1762308702.714607) vcan0 009#833946FC9FA210E85
(1762308702.724601) vcan0 009#8359C6FC9F71D4E84
(1762308702.733059) vcan0 009#833A48F49FA71EE83
(1762308702.742626) vcan0 009#833ACCF49FB9D4E84
(1762308702.752621) vcan0 009#833AC0F4AF8AD8E84
(1762308702.762657) vcan0 009#831AC2FCAF2B9CE84
(1762308702.772651) vcan0 009#833AC2F4AEDC9EE84
(1762308702.782645) vcan0 009#833AC2F4AE8E1AE84
(1762308702.792682) vcan0 009#835AC2FCAE2092F84
(1762308702.802676) vcan0 009#837AC2FCADC318F83
(1762308702.812713) vcan0 009#83BACEFC9D759AF82
(1762308702.822707) vcan0 009#83BB4AF49D38DEF81
(1762308702.824978) vcan0 009#83FB46FC9CFCDEF81
(1762308702.834716) vcan0 009#841BC6F49D025B082
(1762308702.844753) vcan0 009#841B4AF49D5893084
(1762308702.854747) vcan0 009#83FB42F4ADDD57086
(1762308702.864741) vcan0 009#839B48F4AE7E1F088
(1762308702.874735) vcan0 009#833ACEF4AEEA1908B
(1762308702.884772) vcan0 009#82FA4EF4AF12DB08D
(1762308702.894766) vcan0 009#82DA4EFCAF0B1CF8E
(1762308702.904803) vcan0 009#82D9C6F4AEC494F8E
(1762308702.913432) vcan0 009#82F9C4F49DF314F8B
(1762308702.922829) vcan0 009#831A4EFC8DE916F8A
(1762308702.932823) vcan0 009#82FA4AF48E425D08A
(1762308702.942817) vcan0 009#82BA4CFC8EDC5908C
(1762308702.952853) vcan0 009#827A42FC9F84D318F
(1762308702.962847) vcan0 009#82594AF4905B2B191
(1762308702.972884) vcan0 009#81F8C0FCA0FD6B192
(1762308702.982878) vcan0 009#81D7C2FCA17C69192
(1762308702.992872) vcan0 009#81B744F4A1C9A7191
(1762308703.002866) vcan0 009#81D744FCA1F5A518F
(1762308703.007783) vcan0 009#81F744F4A2212318C
(1762308703.016924) vcan0 009#8237C0F4A22BE7088
(1762308703.026918) vcan0 009#825846F492172D084
(1762308703.036955) vcan0 009#8298C2FC91F42B081
(1762308703.046949) vcan0 009#8299CCFC81E22707F
(1762308703.056986) vcan0 009#82BA46FC81C06907E
(1762308703.066980) vcan0 009#82DAC0FC817F24F7E
(1762308703.076974) vcan0 009#82DB4AF4711EE4F7E
(1762308703.087010) vcan0 009#82DB46F470AF62F7F
(1762308703.092397) vcan0 009#82DB44FC700F22F83
(1762308703.102007) vcan0 009#82BAC4FC700E26F85
(1762308703.112043) vcan0 009#8279C6F4702B20F87
(1762308703.122037) vcan0 009#82594AF47056E0F88
(1762308703.132031) vcan0 009#8238CAFC70A164F88
(1762308703.142068) vcan0 009#8258CCFC70FBE0E88
(1762308703.152062) vcan0 009#8258C8FC7146E4E87
(1762308703.162099) vcan0 009#827944FC7163ECE86
(1762308703.172093) vcan0 009#829942FC715320E87
(1762308703.182087) vcan0 009#8299C0FC71452EE87
(1762308703.183377) vcan0 009#8299C2FC71392AE89
(1762308703.193115) vcan0 009#827948FC713D62E8C
(1762308703.203109) vcan0 009#8258CEFC7140EAF8E
(1762308703.213146) vcan0 009#823842FC8152E8F90
(1762308703.223183) vcan0 009#8237C6F48163E0F92
(1762308703.233087) vcan0 009#82374CFC81532CF92
(1762308703.243071) vcan0 009#82374EF48161EAF92
(1762308703.253108) vcan0 009#82374EFC8160AAF91
(1762308703.263102) vcan0 009#8277C0F4917024F90
(1762308703.273096) vcan0 009#82B8C0F4918028F8E
(1762308703.278153) vcan0 009#82D9C2FC91B1ACF8C
(1762308703.288095) vcan0 009#82DA44FC920420F8C
(1762308703.298089) vcan0 009#82BAC8F4927668F8C
(1762308703.304328) vcan0 010#15B00000000000000
(1762308703.304406) vcan0 002#60398EC2AF32A0000
(1762308703.304406) vcan0 003#8D93BA92EEAC89E08
(1762308703.304747) vcan0 004#4E7E2290000000000
(1762308703.305227) vcan0 005#8110E9907011D033D
(1762308703.305503) vcan0 006#85302002000B40000
(1762308703.305887) vcan0 007#59F08401900000000
(1762308703.306196) vcan0 008#20100000000000000
(1762308703.307102) vcan0 009#82BACAFC92976AF8D
(1762308703.317139) vcan0 009#82DB4CF49287A0F8F
(1762308703.327133) vcan0 009#831B4CF49257ECF8F
(1762308703.337169) vcan0 009#833BC8F49239A0F90
(1762308703.347163) vcan0 009#837C46F4921DAAF90
(1762308703.357158) vcan0 009#83BD46F492146D091
(1762308703.361178) vcan0 009#83DE4AFC9214EB195
(1762308703.371172) vcan0 009#839ECCF491FD21199
(1762308703.381209) vcan0 009#833E44FCA1A46B29D
(1762308703.391203) vcan0 009#82DCCCFCA188652A2
(1762308703.401197) vcan0 009#827B44F4B187A92A5
(1762308703.411234) vcan0 009#8259C8FCB173212A7
(1762308703.421228) vcan0 009#8218CAFCB17CEF1A5
(1762308703.431265) vcan0 009#82184AF4B1662D1A2
(1762308703.441259) vcan0 009#823844F4B13FA509E
(1762308703.450613) vcan0 009#8279C8FCA0AB29093
(1762308703.460266) vcan0 009#8279C8FCA0ACA708F
(1762308703.470302) vcan0 009#8239C6FCA10DAF08C
(1762308703.480297) vcan0 009#8219C4FCA19DAF08B
(1762308703.490291) vcan0 009#8239C8F4A21C6108B
(1762308703.500327) vcan0 009#825A48FCA26AED089
(1762308703.510321) vcan0 009#825AC8FCA2A969088
(1762308703.520358) vcan0 009#825B46F4A2C7EF087
(1762308703.530352) vcan0 009#825BC4F4A2C6A3088
(1762308703.540346) vcan0 009#825BC6FCA220E708B
(1762308703.549359) vcan0 009#825B46F4A1CCA6F8C
(1762308703.559396) vcan0 009#825AC2FCA147E8F8C
(1762308703.569390) vcan0 009#827ACCF490A36EF8B
(1762308703.579427) vcan0 009#829A46F49FF05AF8A
(1762308703.589421) vcan0 009#829AC0FC9F5ED6E89
(1762308703.599415) vcan0 009#829ACAF48ECE58E88
(1762308703.609452) vcan0 009#829AC8F48E3F14E88
(1762308703.619446) vcan0 009#829AC6F48DCF52E88
(1762308703.630634) vcan0 009#829AC4F48D7F58E88
(1762308703.640458) vcan0 009#827A44FC8D2E1EE88
(1762308703.650452) vcan0 009#825A44F48D1C52E89
(1762308703.660489) vcan0 009#8259C4F48D3A90E89
(1762308703.670483) vcan0 009#8259C2FC8D5814E88
(1762308703.680519) vcan0 009#8259C0F48D7614E87
(1762308703.690514) vcan0 009#8259C0F48DA498E86
(1762308703.700508) vcan0 009#8259CCF47DE3D2E86
(1762308703.710544) vcan0 009#8279CAFC7E145AE85
(1762308703.720538) vcan0 009#8299CAFC7E6756E85
(1762308703.721615) vcan0 009#82994CF47EEC52E85
(1762308703.731566) vcan0 009#829940F48F71D4F85
(1762308703.741561) vcan0 009#827848F48FF61AF85
(1762308703.751597) vcan0 009#8257C0F4904764F86
(1762308703.761591) vcan0 009#827742F4904526F86
(1762308703.771628) vcan0 009#8296C4FC9FD158F85
(1762308703.781622) vcan0 009#82D6C2FC9F4E50E84
(1762308703.791616) vcan0 009#831740F49EDE94E82
(1762308703.801653) vcan0 009#83574EFC8E81D0F81
(1762308703.810068) vcan0 009#833742F49E9A50F80
(1762308703.819679) vcan0 009#831646FC9ECB96F80
(1762308703.829673) vcan0 009#82F5C8FC9EEA12F81
(1762308703.839667) vcan0 009#82D5C8FC9ED792F82
(1762308703.849703) vcan0 009#82B548FC9EB654F83
(1762308703.859697) vcan0 009#829546F49E86DAF84
(1762308703.869734) vcan0 009#825546FC9E389AF86
(1762308703.879728) vcan0 009#82554CFC9DFB9CF88
(1762308703.889722) vcan0 009#82B4C0FCAE0DDAF89
(1762308703.899716) vcan0 009#82D4C2FCAE5019088
(1762308703.900750) vcan0 009#82D4C6F4AEA155086
(1762308703.910745) vcan0 009#82B546FCAEF25D083
(1762308703.920781) vcan0 009#82B546F4AF32DB081
(1762308703.930775) vcan0 009#82B548F4AF3215080
(1762308703.940812) vcan0 009#8275C4FCAF009B07F
(1762308703.950806) vcan0 009#8255CCFC9E9E92F80
(1762308703.960800) vcan0 009#823644FC9DED5AF81
(1762308703.970837) vcan0 009#827642F49D6E96F83
(1762308703.980831) vcan0 009#82564CFC8D4319084
(1762308703.989673) vcan0 009#8215C2F49E5095186
(1762308703.998857) vcan0 009#81F546FC9F2559186
(1762308704.008851) vcan0 009#81D54AF4900723186
(1762308704.018845) vcan0 009#81D54CF490A669185
(1762308704.028881) vcan0 009#81D5CCF490F42B184
(1762308704.038876) vcan0 009#81D5CAF49112ED183
(1762308704.048912) vcan0 009#81F5C8FC9112E1183
(1762308704.058906) vcan0 009#81F5C6F49113E9182
(1762308704.068943) vcan0 009#81F5C6FC910463182
(1762308704.078084) vcan0 009#81B5C4F4913361182
(1762308704.087950) vcan0 009#81B642FC91322D181
(1762308704.097944) vcan0 009#81B642FC912021181
(1762308704.107981) vcan0 009#81D6C0FC910D6F07F
(1762308704.117975) vcan0 009#81F740F4910A2907E
(1762308704.128012) vcan0 009#81D74CF48106E507D
(1762308704.138006) vcan0 009#81D7CAF481142107D
(1762308704.148042) vcan0 009#81B7CAFC81012B07D
(1762308704.158036) vcan0 009#81D748F480FD66F7E
(1762308704.168031) vcan0 009#81B746F480D96EF7E
(1762308704.169449) vcan0 009#81B6C0FC8095A4F7F
(1762308704.179059) vcan0 009#81B6CCF47052EAF7F
(1762308704.189053) vcan0 009#81B6CAF47011ACF7F
(1762308704.199089) vcan0 009#81D6C6FC7FD19AF7F
(1762308704.209084) vcan0 009#81D744F47FB296F7F
(1762308704.219078) vcan0 009#81D746FC7FA494F7F
(1762308704.229114) vcan0 009#81D6C4F47FC692F7F
(1762308704.239108) vcan0 009#81B6C8F47FE752F7F
(1762308704.249145) vcan0 009#81B64AF4701724F7F
(1762308704.259139) vcan0 009#81D64CFC7045E4F7F
(1762308704.264180) vcan0 009#81B6CEFC708528F7F
(1762308704.274121) vcan0 009#81B6C2F480D464F80
(1762308704.284158) vcan0 009#81D6C6F48113A4F81
(1762308704.294152) vcan0 009#81D74AF48142EEF81
(1762308704.304189) vcan0 009#81D742FC918262F82
(1762308704.307442) vcan0 010#15300000000000000
(1762308704.307517) vcan0 002#60380F02AF32A0000
(1762308704.307517) vcan0 003#8ED3BA92EEAC89E08
(1762308704.307858) vcan0 004#4EBE2290000000000
(1762308704.308337) vcan0 005#8110E990B698D814D
(1762308704.308699) vcan0 006#85502002000B40000
(1762308704.309083) vcan0 007#57908401100000000
(1762308704.309391) vcan0 008#20100000000000000
(1762308704.313284) vcan0 009#81D746FC91F22AF82
(1762308704.323321) vcan0 009#81B74CFC92402EF82
(1762308704.333315) vcan0 009#81B742FCA28BE0E83
(1762308704.343309) vcan0 009#81D7C2FCA2B72AE82
(1762308704.349164) vcan0 009#8218CCF49271EEE81
(1762308704.358348) vcan0 009#825948FC9213ACE81
(1762308704.368342) vcan0 009#8298C8FC91D864E82
(1762308704.378336) vcan0 009#82B848F491CE20E83
(1762308704.388373) vcan0 009#82D748F491A32AF83
(1762308704.398367) vcan0 009#82D74AFC918768F84
(1762308704.408361) vcan0 009#82D74CF4919C2EF85
(1762308704.418398) vcan0 009#82D6C4F4A1F22D087
(1762308704.428392) vcan0 009#82B5C0F4B2A7E308A
(1762308704.438386) vcan0 009#82954CF4B36B2D08C
(1762308704.438908) vcan0 009#8255C4FCC3DA6708F
(1762308704.448432) vcan0 009#82564AF4C3E6EF091
(1762308704.458427) vcan0 009#8236CCFCC362AB093
(1762308704.468463) vcan0 009#8257C8F4C27EA8F94
(1762308704.478457) vcan0 009#8277C4F4C11A22F94
(1762308704.488494) vcan0 009#827846F4BFB69CF92
(1762308704.498488) vcan0 009#825846FCAE541EF90
(1762308704.508482) vcan0 009#82784AF49D24DAF8F
(1762308704.518519) vcan0 009#8277C2F49C8892F8E
(1762308704.528470) vcan0 009#8236C6FC8CD31108A
(1762308704.537526) vcan0 009#8236C4F48D675D087
(1762308704.547520) vcan0 009#823746F48E2A97085
(1762308704.557557) vcan0 009#82584CF48F0C55083
(1762308704.567551) vcan0 009#8259C0FC900CAB081
(1762308704.577545) vcan0 009#825AC2F4912C63081
(1762308704.587582) vcan0 009#825B44FC923BEB081
(1762308704.597576) vcan0 009#823B46F4934AA5083
(1762308704.607612) vcan0 009#823B4CF4942925085
(1762308704.617606) vcan0 009#823ACCFC9484ED086
(1762308704.618086) vcan0 009#821A4AF4949FE0F87
(1762308704.627610) vcan0 009#823A44F4943BA8F86
(1762308704.637647) vcan0 009#823A4EF48399A8F85
(1762308704.647641) vcan0 009#825A46FC830AE6F84
(1762308704.657678) vcan0 009#825A44F4829F2CF83
(1762308704.667672) vcan0 009#8259C2F4822269083
(1762308704.677666) vcan0 009#8239C0FC81B4ED083
(1762308704.687703) vcan0 009#81F8CAF47135A3084
(1762308704.697697) vcan0 009#81D848F470B66F084
(1762308704.707691) vcan0 009#81D7C6F4705823085
(1762308704.708106) vcan0 009#81B846F4700AEB084
(1762308704.717280) vcan0 009#81F7C8F47FAC9B083
(1762308704.727317) vcan0 009#81F7C8F47F7E5F081
(1762308704.737311) vcan0 009#81D7C8F47F3E11080
(1762308704.747305) vcan0 009#81F7CAFC7F1F1307E
(1762308704.757342) vcan0 009#81D7CAF47F3FD907C
(1762308704.767336) vcan0 009#81D84EF47F601317B
(1762308704.777372) vcan0 009#81D7C4FC8FBE9107A
(1762308704.787366) vcan0 009#81B748F4801B2D078
(1762308704.797019) vcan0 009#81974CF4804E22F76
(1762308704.806373) vcan0 009#81B7CAFC8017ACF74
(1762308704.816367) vcan0 009#81F848FC8FD3DAF73
(1762308704.826361) vcan0 009#823946FC8FB45CF72
(1762308704.836398) vcan0 009#8279C4FC8FB95AF72
(1762308704.846392) vcan0 009#827A48FC8FA015073
(1762308704.856386) vcan0 009#8279CCF48F779B074
(1762308704.866423) vcan0 009#827944F49F3CD1076
(1762308704.876460) vcan0 009#82584AFC9F0F91077
(1762308704.885814) vcan0 009#8256C8FCAECE15076
(1762308704.895467) vcan0 009#82764AFCAEAADD074
(1762308704.905461) vcan0 009#8276CCFCAE9799073
(1762308704.915497) vcan0 009#82974AFCAE951F072
(1762308704.925491) vcan0 009#82B7C8FCAEA451073
(1762308704.935486) vcan0 009#82D7C8F4AEB591074
(1762308704.945522) vcan0 009#82D7C8F4AEC797075
(1762308704.955516) vcan0 009#82D7C4F4AEEA57077
(1762308704.965553) vcan0 009#82B848FCAF1E5F079
(1762308704.974865) vcan0 009#8256CCF4BEFFD907F
(1762308704.984560) vcan0 009#81F54AF4CF0DDD082
(1762308704.994554) vcan0 009#8154C8F4CF27D7085
(1762308705.004548) vcan0 009#815448F4CF229D087
(1762308705.014585) vcan0 009#81734EFCCEC814F88
(1762308705.024579) vcan0 009#8173C0F4CEFDD6E85
(1762308705.034616) vcan0 009#81B548FCAED75AE80
(1762308705.044610) vcan0 009#821644F49E565CE7A
(1762308705.054604) vcan0 009#8296C8FC8DB85EE74
(1762308705.064598) vcan0 009#8298CEF47D299EE6F
(1762308705.066272) vcan0 009#82D9C2F47CED5CE6D
(1762308705.075669) vcan0 009#82F9CEF46CD4DEF6E
(1762308705.085663) vcan0 009#82FA40FC7CDC1AF71
(1762308705.095657) vcan0 009#82BA4AF47D5459075
(1762308705.105694) vcan0 009#825948F48E4A5F079
(1762308705.115688) vcan0 009#8218C6FC9F4A5107E
(1762308705.125724) vcan0 009#8217CCFC902461081
(1762308705.135718) vcan0 009#8217CCFC90CC6CF81
(1762308705.145713) vcan0 009#823748F491146EF80
(1762308705.155749) vcan0 009#8257C2F4911EECE7E
(1762308705.157935) vcan0 009#82394AF4811D22E7D
(1762308705.167759) vcan0 009#8259C8F4817224F7D
(1762308705.177753) vcan0 009#823AC0FC91F968F7E
(1762308705.187790) vcan0 009#823A48FC929F2AF80
(1762308705.197784) vcan0 009#81F9CEF49352EF082
(1762308705.207778) vcan0 009#819942FCA3C36B084
(1762308705.217814) vcan0 009#8178C4FCA3C06B085
(1762308705.227809) vcan0 009#817840FCA34BA6F85
(1762308705.237845) vcan0 009#81B8C6F492792EF83
(1762308705.247839) vcan0 009#81FAC8FC815BAAF81
(1762308705.252799) vcan0 009#825AC8FC8FFED4F7F
(1762308705.261854) vcan0 009#821BCEF47E8F96F7D
(1762308705.271891) vcan0 009#821C46FC7DC69D07D
(1762308705.281885) vcan0 009#823B48FC7D8E1D07E
(1762308705.291922) vcan0 009#81FACCFC7D5FD307F
(1762308705.301916) vcan0 009#81DA4AF47D901D17F
(1762308705.303846) vcan0 010#15300000000000000
(1762308705.304038) vcan0 002#60368F42AF32A0000
(1762308705.304038) vcan0 003#8033CA92EEAC89E08
(1762308705.304379) vcan0 004#4EFE2290000000000
(1762308705.304858) vcan0 005#8110E5909856D704C
(1762308705.305238) vcan0 006#85702002000B40000
(1762308705.305622) vcan0 007#51F09801700000000
(1762308705.305930) vcan0 008#20100000000000000
(1762308705.311146) vcan0 009#81B94EFC7DFFDB080
(1762308705.321183) vcan0 009#8198C0F48E6C17081
(1762308705.331177) vcan0 009#8177C4FC8EE79D081
(1762308705.334045) vcan0 009#81994AF4801CE6F80
(1762308705.343186) vcan0 009#81DA4CFC80C868F7F
(1762308705.353223) vcan0 009#81FBCAF4819620F7F
(1762308705.363217) vcan0 009#81DBCEFC82466AF7F
(1762308705.373211) vcan0 009#81BBC2FC92D7A2F81
(1762308705.383248) vcan0 009#81BB48FC930822F83
(1762308705.393242) vcan0 009#81BACEF492E768F84
(1762308705.403279) vcan0 009#81BA40F4A275EEF84
(1762308705.413273) vcan0 009#81BA42F4A1D460F85
(1762308705.423267) vcan0 009#81DAC4FCA13460F85
(1762308705.424386) vcan0 009#81FAC6FCA0F5E0F85
(1762308705.434295) vcan0 009#81DA48FCA0C760F85
(1762308705.444289) vcan0 009#81B9C6FCA086A4F85
(1762308705.454326) vcan0 009#81B940F4A04562F85
(1762308705.464320) vcan0 009#81D84AF4901568F84
(1762308705.474356) vcan0 009#81D7C2F49006EAF83
(1762308705.484351) vcan0 009#8217CCFC803A28F82
(1762308705.494345) vcan0 009#823848F480AFE2F81
(1762308705.504381) vcan0 009#8278CAFC8157EF07F
(1762308705.514375) vcan0 009#82394CFC8270EB17F
(1762308705.515879) vcan0 009#8219C2FC9399A5181
(1762308705.525404) vcan0 009#81F9CEFC94602F283
(1762308705.535398) vcan0 009#81B9CCFCA512A3286
(1762308705.545392) vcan0 009#815A42F4B5B0A9288
(1762308705.555428) vcan0 009#815A4AFCB5EBA718A
(1762308705.565422) vcan0 009#817A4CFCB5C56918A
(1762308705.575417) vcan0 009#819B4CFCB53DAD088
(1762308705.585453) vcan0 009#81DBC6FCB45623086
(1762308705.595447) vcan0 009#821D40FCB370A9082
(1762308705.606423) vcan0 009#821E44F4A2BC22F7F
(1762308705.607713) vcan0 009#823ECCFC922A22F7D
(1762308705.617494) vcan0 009#825F46FC91EAA8F7C
(1762308705.627488) vcan0 009#825F42F491ECA4F7D
(1762308705.637524) vcan0 009#827FC0F491EFAAF7E
(1762308705.647518) vcan0 009#827FC2FC91E32D07F
(1762308705.657513) vcan0 009#8230490C91F6AF080
(1762308705.667549) vcan0 009#82104D0C91F8A5082
(1762308705.677586) vcan0 009#81F0CF0C91F9EF083
(1762308705.687537) vcan0 009#81D0CF0C91DB2B085
(1762308705.694588) vcan0 009#81BFC4F4A149E9088
(1762308705.704582) vcan0 009#81BEC2F4A0E6A5089
(1762308705.714618) vcan0 009#81BEC0F4A093E1089
(1762308705.724612) vcan0 009#81DECEFC906223088
(1762308705.734606) vcan0 009#81DE4AFC90612F086
(1762308705.744643) vcan0 009#81DE46FC905FECF85
(1762308705.754637) vcan0 009#81DDC4FC903F20F85
(1762308705.764631) vcan0 009#81DDC2F4901EAAF84
(1762308705.774668) vcan0 009#81DDC0FC9FDE16F84
(1762308705.783041) vcan0 009#823ECEF48F4C90F83
(1762308705.792694) vcan0 009#825ECCF48F0C1AF82
(1762308705.802688) vcan0 009#825F4AFC8EDBDCF82
(1762308705.812682) vcan0 009#825F46F48EAB18F83
(1762308705.822719) vcan0 009#825F46FC8E6A96F84
(1762308705.832713) vcan0 009#825EC4FC8E4A14F85
(1762308705.842707) vcan0 009#823E44F48E395EF85
(1762308705.852743) vcan0 009#823E44FC8E18D4F86
(1762308705.862737) vcan0 009#821E46F48E2954F86
(1762308705.872732) vcan0 009#81FE4AF48E4A14F86
(1762308705.873766) vcan0 009#81DD4EF48E5994F86
(1762308705.883802) vcan0 009#81BC42F49E47D0F86
(1762308705.893796) vcan0 009#819BC4FC9E249AF85
(1762308705.903790) vcan0 009#817A46FC9E209CF84
(1762308705.913827) vcan0 009#8179C8F49E5CD4E83
(1762308705.923821) vcan0 009#81794AFC9E9956E81
(1762308705.933815) vcan0 009#81794EFC9EF792E7F
(1762308705.943852) vcan0 009#8199C0F4AF4690E7D
(1762308705.953846) vcan0 009#8199C2F4AF4596E7B
(1762308705.963840) vcan0 009#8199C2FCAED352E7A
(1762308705.964120) vcan0 009#8179CCFC9E211AE79
(1762308705.973677) vcan0 009#8179C6F49D505CE79
(1762308705.983671) vcan0 009#81B94EFC8C82D8E7A
(1762308705.993708) vcan0 009#81D8CAF48BE952E7B
(1762308706.003702) vcan0 009#823848FC8B8314F7B
(1762308706.013696) vcan0 009#8257CAFC8B9ED0F7B
(1762308706.023733) vcan0 009#8257CCFC8C199F07B
(1762308706.033727) vcan0 009#8238C8FC9D055717D
(1762308706.043764) vcan0 009#81D94CFCAE0DD517F
(1762308706.051027) vcan0 009#811A44F4D15EAD183
(1762308706.060765) vcan0 009#80BA4EFCD23321185
(1762308706.070759) vcan0 009#80B9CCFCD262EF085
(1762308706.080796) vcan0 009#81394CF4C17F24E84
(1762308706.090790) vcan0 009#81B9C0FCBFD016E80
(1762308706.100784) vcan0 009#823ACEF49E3B52D7C
(1762308706.110821) vcan0 009#829BCAF48D0054E79
(1762308706.120815) vcan0 009#82FD4EF47C6BD8E78
(1762308706.130852) vcan0 009#833DCAF47C9B1CF79
(1762308706.140846) vcan0 009#833DC0FC8D7B5B07C
(1762308706.142989) vcan0 009#82FD46F48EB7D3180
(1762308706.152855) vcan0 009#82BBCEFC8FEF9F183
(1762308706.162892) vcan0 009#825B46F490B021287
(1762308706.172886) vcan0 009#8239CEF490FAE9189
(1762308706.182880) vcan0 009#81F94EF490F2E118B
(1762308706.192917) vcan0 009#81D8CEFC90ECE508B
(1762308706.202911) vcan0 009#82194EFC90D9AB08A
(1762308706.212948) vcan0 009#821A40F4A0E8E9089
(1762308706.222942) vcan0 009#823A42FCA0F92B088
(1762308706.232936) vcan0 009#821AC0FCA107EB087
(1762308706.238919) vcan0 009#821ACEFC90D563087
(1762308706.247974) vcan0 009#81FACCFC9071AD086
(1762308706.257969) vcan0 009#81DAC6FC900DA6F86
(1762308706.268005) vcan0 009#81DAC2FC9F9A1AF85
(1762308706.277999) vcan0 009#81FACCF48F3856F84
(1762308706.288036) vcan0 009#81FB46FC8ED818F82
(1762308706.298030) vcan0 009#81FB44F48EA85CF80
(1762308706.308024) vcan0 009#81FB40FC8E885AF7F
(1762308706.318061) vcan0 009#81FBCCFC7E7856F7F
(1762308706.326775) vcan0 010#16300000000000000
(1762308706.326874) vcan0 002#60350F82AF32A0000
(1762308706.326874) vcan0 003#80D3CA9EEE9C89E08
(1762308706.327216) vcan0 004#415E3310000000000
(1762308706.327695) vcan0 005#8110E99163116EE53
(1762308706.328073) vcan0 006#85902002000B40000
(1762308706.328457) vcan0 007#5D506601900000000
(1762308706.328723) vcan0 008#20100000000000000
(1762308706.329202) vcan0 009#821C4AFC7E785CF7F
(1762308706.329724) vcan0 009#823C48FC7E8918F80
(1762308706.338225) vcan0 009#821CC6F47EAA5CF81
(1762308706.348219) vcan0 009#821CC6F47ECB14F83
(1762308706.358256) vcan0 009#821CCAFC7EEB12F85
(1762308706.368250) vcan0 009#821CCCFC7F3A1EF86
(1762308706.378244) vcan0 009#821CC0F48FC918F88
(1762308706.388281) vcan0 009#81FCC4FC8058A0F8A
(1762308706.398275) vcan0 009#81DCCAFC810866F8B
(1762308706.408269) vcan0 009#81BCCEF481C82EF8C
(1762308706.409730) vcan0 009#819C4EFC928562F8F
(1762308706.419297) vcan0 009#817C42F4A2B12AF8F
(1762308706.429334) vcan0 009#817C42FCA28C22E90
(1762308706.439328) vcan0 009#817CC2FCA228EAE90
(1762308706.449322) vcan0 009#817D42F4A1C766E91
(1762308706.459359) vcan0 009#817D4EFC9157E2E92
(1762308706.469353) vcan0 009#815D4EF491092CE92
(1762308706.479347) vcan0 009#815D4EFC90BA6EE92
(1762308706.489384) vcan0 009#815CCCF4908B2EE92
(1762308706.499378) vcan0 009#815CCAF4905B2AE92
(1762308706.501606) vcan0 009#817CC8F4903BE6E92
(1762308706.511387) vcan0 009#819C44F4903EE2E92
(1762308706.521424) vcan0 009#81BC40FC90432CF91
(1762308706.531418) vcan0 009#819C40FC9088ACF91
(1762308706.541455) vcan0 009#819C44F4911F6AF92
(1762308706.551449) vcan0 009#817CCCF49217E9094
(1762308706.561443) vcan0 009#817C48F4A34061197
(1762308706.571480) vcan0 009#813BC4FCB47565199
(1762308706.581474) vcan0 009#80FB4EF4B5856519B
(1762308706.589974) vcan0 009#809946FCC6672D09D
(1762308706.599499) vcan0 009#8098C6FCC62E2EF9C
(1762308706.609536) vcan0 009#80F840FCC575A6F9A
(1762308706.619530) vcan0 009#813946F4B49024F96
(1762308706.629524) vcan0 009#8199CAFCA39EA6E91
(1762308706.639518) vcan0 009#81DB46F4A2A1ECF8C
(1762308706.649555) vcan0 009#81FCC4FCA1C622F89
(1762308706.659549) vcan0 009#821E42FCA13AAEF87
(1762308706.669586) vcan0 009#821F42F4A0FF26F88
(1762308706.678257) vcan0 009#81DF44FCA0966508C
(1762308706.687569) vcan0 009#819E48FCA067A308E
(1762308706.697605) vcan0 009#817D4AF4A0162708F
(1762308706.707599) vcan0 009#815C48FCAF925B08F
(1762308706.717636) vcan0 009#815B42FCAF2DD4F8F
(1762308706.727630) vcan0 009#817B4AF49ECAD2F8E
(1762308706.737624) vcan0 009#81BB44FC9E8A1AF8C
(1762308706.747661) vcan0 009#81DB4EF48E8B18F8B
(1762308706.757655) vcan0 009#81FB4AFC8E9C5EF8A
(1762308706.767649) vcan0 009#821B48FC8EBE5AF8A
(1762308706.770006) vcan0 009#823B46FC8EE11D08A
(1762308706.779701) vcan0 009#823AC8F48F02DF08A
(1762308706.789695) vcan0 009#821ACAF48F22DD08A
(1762308706.799732) vcan0 009#821A4CFC8F41D108A
(1762308706.809726) vcan0 009#821A4CF48F6F1AF88
(1762308706.819763) vcan0 009#821AC8FC8F5C5EF86
(1762308706.829757) vcan0 009#823B44F48F3A52F85
(1762308706.839751) vcan0 009#823BC2FC8F095AF83
(1762308706.849788) vcan0 009#825CC0FC8EF998F82
(1762308706.859782) vcan0 009#827D4EF47EF9D0F82
(1762308706.860901) vcan0 009#82BE4CFC7EEA9CF81
(1762308706.870810) vcan0 009#82BECCF47F0C1CF81
(1762308706.880804) vcan0 009#82BF40F48F6F56F82
(1762308706.890841) vcan0 009#829F44FC8FC25B083
(1762308706.900835) vcan0 009#829F46F48013A5085
(1762308706.910829) vcan0 009#827ECEF480346F086
(1762308706.920866) vcan0 009#823E44F4905429088
(1762308706.930860) vcan0 009#821D48F490522108A
(1762308706.940897) vcan0 009#821C4CFC901E6CF8A
(1762308706.950123) vcan0 009#825BC0F4AFC8DCF88
(1762308706.959903) vcan0 009#827BC0FCAFC852F87
(1762308706.969897) vcan0 009#829BC2FCAFD914F85
(1762308706.979934) vcan0 009#829BC6FCAFEA5AF83
(1762308706.989928) vcan0 009#82BBC8FCAFDA52F82
(1762308706.999922) vcan0 009#82BBC8FCAFA858F80
(1762308707.009916) vcan0 009#82BBC6F4AF5550F7F
(1762308707.019953) vcan0 009#82DBC4FCAF02DAF7D
(1762308707.029947) vcan0 009#831CC0F4AED156F7C
(1762308707.039941) vcan0 009#831CCCF49E9158F7B
(1762308707.040145) vcan0 009#833D48F49E61DAF7B
(1762308707.049702) vcan0 009#835CC2FC9E1318F7C
(1762308707.059696) vcan0 009#835CCCFC8DB5D6F7E
(1762308707.069733) vcan0 009#835C4CF48D695EF80
(1762308707.079727) vcan0 009#833B48FC8D3D1CF83
(1762308707.089721) vcan0 009#833A48F48D409B086
(1762308707.099758) vcan0 009#8318C8FC8D931B088
(1762308707.109752) vcan0 009#8317CAFC8E3599089
(1762308707.119789) vcan0 009#82D740F49EF6DB089
(1762308707.129057) vcan0 009#8275C6F4907221089
(1762308707.138795) vcan0 009#8275CAFC910DE4F88
(1762308707.148832) vcan0 009#82564EF491AA20F87
(1762308707.158826) vcan0 009#8256CEF49227AEF85
(1762308707.168820) vcan0 009#827740FCA255EAF84
(1762308707.178857) vcan0 009#8277CEFC925466F83
(1762308707.188851) vcan0 009#8297CEFC9213A0F82
(1762308707.198845) vcan0 009#82784AF491A32EF80
(1762308707.208882) vcan0 009#829846F490F2AEF7F
(1762308707.218876) vcan0 009#82B8CEFC8032AAF7E
(1762308707.223921) vcan0 009#82D948F48F93D4F7D
(1762308707.233915) vcan0 009#82D942FC8F16D2F7C
(1762308707.243909) vcan0 009#82F94CF47EFBDCF7B
(1762308707.253946) vcan0 009#82F94AF47F119F07B
(1762308707.263940) vcan0 009#8318CAFC7F86DD07C
(1762308707.273934) vcan0 009#82B84CFC704B2507E
(1762308707.283971) vcan0 009#8257C0F4814EA9080
(1762308707.293965) vcan0 009#8236CAF482402D182
(1762308707.304001) vcan0 009#825640FC936FAF083
(1762308707.311051) vcan0 009#821746FC9518A9082
(1762308707.321600) vcan0 010#15B00000000000000
(1762308707.321732) vcan0 002#60338FC2AF32A0000
(1762308707.321732) vcan0 003#8193CA98EE9C89E08
(1762308707.322074) vcan0 004#419E3310000000000
(1762308707.322553) vcan0 005#8110E991641A6ECA9
(1762308707.322991) vcan0 006#85B02002000B40000
(1762308707.323375) vcan0 007#5C303201F00000000
(1762308707.323684) vcan0 008#20100000000000000
(1762308707.330222) vcan0 009#825948F496202B081
(1762308707.340216) vcan0 009#827AC4FC966D6CF81
(1762308707.350253) vcan0 009#829BC4F4965D60F83
(1762308707.360247) vcan0 009#829CC2FC961EA0F85
(1762308707.370284) vcan0 009#827CC4FC959069087
(1762308707.380278) vcan0 009#825BC8F494D02108A
(1762308707.390314) vcan0 009#825B48FC93AD60F8B
(1762308707.398559) vcan0 009#829ACEFC80A768F88
(1762308707.408297) vcan0 009#829BC8FC8F67DCF86
(1762308707.418334) vcan0 009#82BC44F48EAC9EF85
(1762308707.428328) vcan0 009#82DCC4F48E63D5086
(1762308707.438322) vcan0 009#82DCC4FC8E6B59087
(1762308707.448359) vcan0 009#82BCC8F48EA19D189
(1762308707.458353) vcan0 009#827BCEF48EE55518C
(1762308707.468390) vcan0 009#821A46F49F149B18E
(1762308707.478384) vcan0 009#81F9CAFC9F4011190
(1762308707.488165) vcan0 009#81F8C2F4AFD35F08E
(1762308707.497391) vcan0 009#81F942F4A04E64F8D
(1762308707.507427) vcan0 009#8219C0FCA0892CF8B
(1762308707.517421) vcan0 009#8219CEF490C5A8F8A
(1762308707.527415) vcan0 009#81F9CCFC90E426F8A
(1762308707.537452) vcan0 009#81F9CAF490D3EAF8A
(1762308707.547446) vcan0 009#8218CAF490A3AEF8A
(1762308707.557483) vcan0 009#81F8C8F490542AF8A
(1762308707.567477) vcan0 009#81D84AFC9FD494F8A
(1762308707.577471) vcan0 009#81B7CAF49F7516F89
(1762308707.578847) vcan0 009#81B7CCF49F3610F88
(1762308707.588499) vcan0 009#81D7CCF49F2792F86
(1762308707.598536) vcan0 009#81B7CEFC9F1912F84
(1762308707.608530) vcan0 009#8197CEFC9F2A58F82
(1762308707.618524) vcan0 009#819740FCAF4A54F81
(1762308707.628561) vcan0 009#819742F4AF88D2F80
(1762308707.638555) vcan0 009#819744FCAFB6D6F7E
(1762308707.648592) vcan0 009#81B744FCAFD456F7C
(1762308707.658586) vcan0 009#81D842FCAFF294F7A
(1762308707.666873) vcan0 009#8219CEFC9FBFDAE76
(1762308707.676569) vcan0 009#827ACCF49F9050F76
(1762308707.686605) vcan0 009#829B4AF49F6210F76
(1762308707.696599) vcan0 009#82BBC8F49F34D8F76
(1762308707.706636) vcan0 009#82BBC8FC9F07D8F77
(1762308707.716630) vcan0 009#829C48FC9EEA5CF78
(1762308707.726624) vcan0 009#827D4CF49EEC98F7A
(1762308707.736661) vcan0 009#827D40FCAF1F96F7C
(1762308707.746655) vcan0 009#825DC4FCAF51D107E
(1762308707.755625) vcan0 009#81FDC6F4AF201D081
(1762308707.764681) vcan0 009#81DDC4FCAEDD1CF83
(1762308707.774675) vcan0 009#81DDC4F4AE8992F85
(1762308707.784711) vcan0 009#81DD40F4AE46D8F85
(1762308707.794706) vcan0 009#81BD4CF49E2590F85
(1762308707.804742) vcan0 009#81BD4AFC9E1512F84
(1762308707.814736) vcan0 009#81BD48FC9E3550F83
(1762308707.824773) vcan0 009#819D46FC9E461CF81
(1762308707.834767) vcan0 009#81BDC6FC9E775AF80
(1762308707.844761) vcan0 009#81BE44F49ED9DAF7F
(1762308707.847161) vcan0 009#819FC6F49F5DD8F7F
(1762308707.856813) vcan0 009#81904B0C900367080
(1762308707.866807) vcan0 009#81904F0C90F9E1082
(1762308707.876802) vcan0 009#81504704A1AE63084
(1762308707.886838) vcan0 009#813F4AFCA1EEA5086
(1762308707.896832) vcan0 009#813E40FCB1FC29087
(1762308707.906826) vcan0 009#813DC0FCB1E6E7087
(1762308707.916863) vcan0 009#815D4EFCA1B0E1086
(1762308707.926900) vcan0 009#819D4AFCA17C2EF83
(1762308707.934462) vcan0 009#81FDCEFC910C26F7F
(1762308707.943901) vcan0 009#81FDC8F490BDA0F7E
(1762308707.953895) vcan0 009#821DC6F4904F2CF7D
(1762308707.963932) vcan0 009#821DC2FC9FE05107E
(1762308707.973926) vcan0 009#823DCEF48FA25707E
(1762308707.983920) vcan0 009#825DCCFC8F64DD07E
(1762308707.993957) vcan0 009#827DCCFC8F479507F
(1762308708.003951) vcan0 009#827DCAFC8F39D3080
(1762308708.013945) vcan0 009#829D48FC8F1B57081
(1762308708.023939) vcan0 009#829D48F48F0C5D082
(1762308708.028771) vcan0 009#829CC8F48EFCDF083
(1762308708.037997) vcan0 009#827CCAFC8EEC53085
(1762308708.047991) vcan0 009#827BCCF48F0B51086
(1762308708.057985) vcan0 009#825B4CFC8F4999086
(1762308708.068022) vcan0 009#825ACEFC8FA6D3086
(1762308708.078016) vcan0 009#823A40F4901427085
(1762308708.088053) vcan0 009#8219C0FC9050EB084
(1762308708.098047) vcan0 009#81D942FC906CE4F84
(1762308708.108083) vcan0 009#81B844F49058A0F84
(1762308708.116029) vcan0 009#819742FC9FF09EF81
(1762308708.126066) vcan0 009#81B6C2F49FCE18E7F
(1762308708.136103) vcan0 009#81D742FC9F9CD8E7C
(1762308708.146097) vcan0 009#81F744F49FACD4E79
(1762308708.156134) vcan0 009#81F7C2F49FBC9CE76
(1762308708.166128) vcan0 009#821844FC9F8CD0E75
(1762308708.176122) vcan0 009#8217C6F49F6D10E74
(1762308708.186159) vcan0 009#821746FC9F3C94E73
(1762308708.196153) vcan0 009#823744FC9F0C18E72
(1762308708.205293) vcan0 009#8257C4F49EDC5EE70
(1762308708.215157) vcan0 009#8278C4F49EEC92E70
(1762308708.225141) vcan0 009#8299C4F49EFD1AE6F
(1762308708.235157) vcan0 009#829AC2FC9EFDDCE6F
(1762308708.245141) vcan0 009#829B42FC9EEEDCE70
(1762308708.255156) vcan0 009#82BBC0F49ECFD0E72
(1762308708.265140) vcan0 009#82DBCCF48E7116F73
(1762308708.275134) vcan0 009#82FC46FC8E0396F74
(1762308708.285154) vcan0 009#831C44F48DA858F75
(1762308708.295138) vcan0 009#831C42FC8D6F18F76
(1762308708.302999) vcan0 009#831BC4F48D6657077
(1762308708.312178) vcan0 009#82FB46FC8D9D99078
(1762308708.313714) vcan0 010#15B00000000000000
(1762308708.313763) vcan0 002#60320002BF32A0000
(1762308708.313763) vcan0 003#8213CA90EE9C89E08
(1762308708.314105) vcan0 004#417E3310000000000
(1762308708.314584) vcan0 005#8110E99165156E26D
(1762308708.314988) vcan0 006#85D02002000B40000
(1762308708.315372) vcan0 007#5DB04002300000000
(1762308708.315638) vcan0 008#20100000000000000
(1762308708.321237) vcan0 009#82DA4CF48DF2D117A
(1762308708.331231) vcan0 009#829942FC9E345517B
(1762308708.341268) vcan0 009#827846FC9E831717C
(1762308708.351262) vcan0 009#82384AF49ED09D17C
(1762308708.361299) vcan0 009#82184CFC9F1EDD07C
(1762308708.371293) vcan0 009#81F8C0FCAF5D5D07C
(1762308708.381330) vcan0 009#81D8C2FCAF8BDB07C
(1762308708.385649) vcan0 009#81D948FCAFC71507B
(1762308708.395302) vcan0 009#81D8C8F4AFC2DD079
(1762308708.405339) vcan0 009#81D842FCAF7D5CF77
(1762308708.415333) vcan0 009#81F7CCFC9F18DCF75
(1762308708.425327) vcan0 009#8217C4F49EA55EF73
(1762308708.435364) vcan0 009#8237CCF48E23D2F72
(1762308708.445358) vcan0 009#825844FC8DB492F71
(1762308708.455394) vcan0 009#8298C0FC8D781CF70
(1762308708.465388) vcan0 009#82B8CEF47D7D10F71
(1762308708.475255) vcan0 009#8298C2FC8E2713074
(1762308708.484395) vcan0 009#82984AF48EEADB076
(1762308708.494432) vcan0 009#8277C2FC9F9C11079
(1762308708.504426) vcan0 009#82774CFC903B2D07A
(1762308708.514463) vcan0 009#827742FCA0A82D07B
(1762308708.524457) vcan0 009#8277C8FCA0F46107C
(1762308708.534451) vcan0 009#8277CAFCA130E507C
(1762308708.544488) vcan0 009#82984CFCA14CEAF7C
(1762308708.554482) vcan0 009#8298CAF4A14A24F7D
(1762308708.564476) vcan0 009#82B8C6F4A10860F7E
(1762308708.564998) vcan0 009#82D942FCA087A0F7F
(1762308708.574523) vcan0 009#82D94CF49008EEF7F
(1762308708.584517) vcan0 009#82F9C6FC9F6B9EF80
(1762308708.594553) vcan0 009#82D9C4F49EEF9CF81
(1762308708.604548) vcan0 009#82D9C0FC9E741B082
(1762308708.614542) vcan0 009#82D9C0F49E4859083
(1762308708.624578) vcan0 009#82B9CEFC8E3B97084
(1762308708.634572) vcan0 009#82B94CFC8E3D5F084
(1762308708.644567) vcan0 009#8298CCFC8E2DD7085
(1762308708.654305) vcan0 009#8297CCF48E0A51085
(1762308708.663616) vcan0 009#8297CCFC8E17DB083
(1762308708.673610) vcan0 009#82984AF48E655B081
(1762308708.683604) vcan0 009#82B84AF48EE35D07F
(1762308708.693641) vcan0 009#82D84AFC8F721107E
(1762308708.703635) vcan0 009#82B948F48031AD07C
(1762308708.713672) vcan0 009#829948FC80B02B07C
(1762308708.723666) vcan0 009#8298CAFC811E26F7D
(1762308708.733703) vcan0 009#8298CCFC817BE0F7E
(1762308708.743697) vcan0 009#8298CEF481B96CF7E
(1762308708.744176) vcan0 009#8298CEFC81B7AEF7E
(1762308708.753701) vcan0 009#8298CEFC8196ACF7E
(1762308708.763737) vcan0 009#82994CFC81566EF7E
(1762308708.773732) vcan0 009#82994AFC811768F7F
(1762308708.783768) vcan0 009#8299CAF480FA64F80
(1762308708.793762) vcan0 009#8299CAF480EE6EF80
(1762308708.803756) vcan0 009#82994CF480F2A9081
(1762308708.813793) vcan0 009#8278C0F49105E1082
(1762308708.823787) vcan0 009#825844FC9107E5082
(1762308708.833781) vcan0 009#8237C8F49117A5082
(1762308708.834186) vcan0 009#8237CAF49105EF081
(1762308708.843615) vcan0 009#8257CEF490F2E3081
(1762308708.853609) vcan0 009#82584EF490DF28F80
(1762308708.863646) vcan0 009#8258CEFC90ABA4F80
(1762308708.873640) vcan0 009#8278CCF49088A8F80
(1762308708.883634) vcan0 009#82794CF4905662F81
(1762308708.893671) vcan0 009#8298CAFC9004AAF81
(1762308708.903665) vcan0 009#82B848FC9FC358F81
(1762308708.913702) vcan0 009#82D844FC9F729EF80
(1762308708.923696) vcan0 009#82D842FC9F31D0F80
(1762308708.925754) vcan0 009#82F8C0F49F2258F7F
(1762308708.935705) vcan0 009#82F94EFC8F23D6F7F
(1762308708.945742) vcan0 009#82FACCFC8F4690F80
(1762308708.955736) vcan0 009#82FBCCFC8F6A58F81
(1762308708.965730) vcan0 009#82BC4EF48F9F12F84
(1762308708.975724) vcan0 009#829C46FC9FE49B087
(1762308708.985761) vcan0 009#827BCCF49078E708B
(1762308708.995755) vcan0 009#825AC4F4A0EAE508E
(1762308709.005792) vcan0 009#825946FCA1296908F
(1762308709.014847) vcan0 009#8278C8FCA1542F08C
(1762308709.024799) vcan0 009#82B8C8F4A1622F089
(1762308709.034793) vcan0 009#82D944FCA15F66F86
(1762308709.044829) vcan0 009#82D94EF4913CA8F83
(1762308709.054823) vcan0 009#82D9C6F490FA6CF81
(1762308709.064860) vcan0 009#82F9CEFC809922F81
(1762308709.074854) vcan0 009#82F9C8F48049A4F81
(1762308709.084891) vcan0 009#82F9C2FC8FFBD6F81
(1762308709.094885) vcan0 009#82FAC0F48FCF5AF81
(1762308709.103044) vcan0 009#82BBC4F48009E7083
(1762308709.112868) vcan0 009#829BCAF4807EAF084
(1762308709.122905) vcan0 009#825B40F490F12D186
(1762308709.132899) vcan0 009#821AC4FC91616B188
(1762308709.142893) vcan0 009#821A4AF491EFE508A
(1762308709.152930) vcan0 009#8219CEFC923D2F08A
(1762308709.162924) vcan0 009#821A40FCA26A2708A
(1762308709.172960) vcan0 009#821A42FCA27723089
(1762308709.182954) vcan0 009#81FAC0F4A263EB087
(1762308709.192650) vcan0 009#81FBCEFC9210A7085
(1762308709.201961) vcan0 009#81FBCEFC9200AF084
(1762308709.211998) vcan0 009#821BCCFC91D0E5084
(1762308709.221992) vcan0 009#823B48F49180A7083
(1762308709.231986) vcan0 009#825AC6F49110E5082
(1762308709.242023) vcan0 009#827A42F4909061081
(1762308709.252017) vcan0 009#827A4EFC8FFF9EF7F
(1762308709.262054) vcan0 009#829A4AFC8F7F12F7F
(1762308709.272048) vcan0 009#829AC6F48F301D07E
(1762308709.282042) vcan0 009#82BAC4FC8F225F07E
(1762308709.286361) vcan0 009#82BAC6F48F649707F
(1762308709.294563) vcan0 010#15300000000000000
(1762308709.294737) vcan0 002#60308042BF32A0000
(1762308709.294737) vcan0 003#8293CA98EE8C89E08
(1762308709.295079) vcan0 004#411E3310000000000
(1762308709.295558) vcan0 005#8110E991661A66283
(1762308709.295935) vcan0 006#85D02002000B40000
(1762308709.296276) vcan0 007#57D04A01F00000000
(1762308709.296585) vcan0 008#20100000000000000
(1762308709.297064) vcan0 009#829A48F48FB5D1080
(1762308709.305266) vcan0 009#82794AF48005AD080
(1762308709.315303) vcan0 009#827940FC9043E3081
(1762308709.325297) vcan0 009#8258C2FC907123081
(1762308709.335291) vcan0 009#8258C2FC908F28F80
(1762308709.345285) vcan0 009#8278C2FC906DE8F7F
(1762308709.355322) vcan0 009#827842F4903E68F7E
(1762308709.365359) vcan0 009#827842F49FE01907D
(1762308709.370574) vcan0 009#8257C4F49F13D707C
(1762308709.380355) vcan0 009#821746F49EE5DD07B
(1762308709.390349) vcan0 009#81D646FC9ED71907A
(1762308709.400386) vcan0 009#81D64AFC9ED79F078
(1762308709.410380) vcan0 009#81F5CCF49EF7DB076
(1762308709.420374) vcan0 009#81F5CEFC9EF7DD073
(1762308709.430411) vcan0 009#81F64EFC9EE75D070
(1762308709.440405) vcan0 009#81F640F4AEC5D706E
(1762308709.450442) vcan0 009#81F640F4AEA3D706C
(1762308709.460436) vcan0 009#81F64EFC9E725906A
(1762308709.460915) vcan0 009#8236CEF49E4159068
(1762308709.470440) vcan0 009#82774CFC9E01D9066
(1762308709.480476) vcan0 009#8277CAF49DD2D1065
(1762308709.490470) vcan0 009#8277C8F49D8355064
(1762308709.500465) vcan0 009#82B7C8FC9D2395064
(1762308709.510501) vcan0 009#82F846FC9CB395064
(1762308709.520495) vcan0 009#833844F49C649F063
(1762308709.530532) vcan0 009#8338C4F49C15D7063
(1762308709.540526) vcan0 009#833942FC9BD753063
(1762308709.549539) vcan0 009#833A42F49BCA59064
(1762308709.559533) vcan0 009#831AC4F49BFC1D065
(1762308709.569570) vcan0 009#82FAC4F49C4D13067
(1762308709.579564) vcan0 009#82BAC6F49C9D1D068
(1762308709.589558) vcan0 009#829AC6F49CEC5F06A
(1762308709.599595) vcan0 009#825AC6FC9D4B5706D
(1762308709.609589) vcan0 009#823B44FC9DBAD1070
(1762308709.619625) vcan0 009#81FB46F49E3AD3072
(1762308709.629620) vcan0 009#81BBC8FC9EDC5F073
(1762308709.639614) vcan0 009#819BCCF49FAF15075
(1762308709.641074) vcan0 009#817B42F4A061EB175
(1762308709.650642) vcan0 009#817B48FCA0D223175
(1762308709.660678) vcan0 009#819B4AFCA0CF2F073
(1762308709.670673) vcan0 009#81FAC8F4A06AA1072
(1762308709.680667) vcan0 009#821ACEFC9FC89B06E
(1762308709.690703) vcan0 009#823B44F49F091106B
(1762308709.700697) vcan0 009#823C40FC9E4C1D068
(1762308709.710734) vcan0 009#825BCCFC8DDF95069
(1762308709.720728) vcan0 009#827ACAF48DA21716B
(1762308709.729741) vcan0 009#825848FC8D731916F
(1762308709.739735) vcan0 009#823748F48DA21B170
(1762308709.749729) vcan0 009#82164CFC8DF099171
(1762308709.759766) vcan0 009#81F5CEFC8E6E5D071
(1762308709.769760) vcan0 009#81D5C0F49EEB19071
(1762308709.779797) vcan0 009#81D644F49F6751071
(1762308709.789791) vcan0 009#81B6C6F49FF41B070
(1762308709.799828) vcan0 009#8197C8FC9071A9070
(1762308709.809822) vcan0 009#81984AFC90EFE8F70
(1762308709.819816) vcan0 009#8178CCF4914E68F70
(1762308709.821703) vcan0 009#81794EF4919D26F70
(1762308709.830844) vcan0 009#815940FCA1DBE6F70
(1762308709.840838) vcan0 009#8139C2FCA20AAAF70
(1762308709.850875) vcan0 009#813AC2F4A21A60F71
(1762308709.860869) vcan0 009#813B46FCA1DAA8F71
(1762308709.870863) vcan0 009#813B4AF4A19B20F72
(1762308709.880900) vcan0 009#813B4AFCA12AE8F72
(1762308709.890894) vcan0 009#813B48FCA079AAF72
(1762308709.900930) vcan0 009#817AC2FCAFA756F72
(1762308709.910156) vcan0 009#81BB46FC9E0892F71
(1762308709.919937) vcan0 009#81BBC4F49D7B90F71
(1762308709.929931) vcan0 009#81DB40FC9D0E96F71
(1762308709.939968) vcan0 009#81FACCFC8CA05D071
(1762308709.949962) vcan0 009#81DA4AF48C5191072
(1762308709.959956) vcan0 009#81D9C8FC8C22D7072
(1762308709.969993) vcan0 009#81D9C8FC8C249D072
(1762308709.979987) vcan0 009#81F946F48C5591073
(1762308709.990024) vcan0 009#821948F48CA713073
(1762308710.000018) vcan0 009#8218C8F48D17D5073
(1762308710.001436) vcan0 009#8218C8F48D87DD073
(1762308710.011046) vcan0 009#82384AF48DF6D5074
(1762308710.021040) vcan0 009#82584AFC8E559D074
(1762308710.031034) vcan0 009#82784AFC8EB499075
(1762308710.041071) vcan0 009#82784AFC8F2457076
(1762308710.051065) vcan0 009#8277CAF48F94DB077
(1762308710.061102) vcan0 009#8277CEFC8FD595079
(1762308710.071096) vcan0 009#825740FC90162107B
(1762308710.081132) vcan0 009#825742FC90562907C
(1762308710.089548) vcan0 009#825748FC90B52907D
(1762308710.099115) vcan0 009#8257CAF490D42F07C
(1762308710.109152) vcan0 009#82784CF490D2EF07B
(1762308710.119146) vcan0 009#82784EFC90B1AB07A
(1762308710.129183) vcan0 009#8298CCF4907029079
(1762308710.139177) vcan0 009#8298C8F4901EACF78
(1762308710.149171) vcan0 009#82B8C2FC9FAE1AF78
(1762308710.159165) vcan0 009#82B94EFC8F4F52F79
(1762308710.169202) vcan0 009#82B948FC8EF19D079
(1762308710.179196) vcan0 009#82D8C6FC8EC4D907A
(1762308710.180443) vcan0 009#82D8C6FC8EA7D307B
(1762308710.190199) vcan0 009#82B844FC8EBA1907B
(1762308710.200226) vcan0 009#82B7C6FC8EEB9F07B
(1762308710.210220) vcan0 009#829748F48F3BD307C
(1762308710.220214) vcan0 009#82974AFC8F8B1707C
(1762308710.230225) vcan0 009#8276CCF48FF95B07C
(1762308710.240209) vcan0 009#8256C0FC90672107D
(1762308710.250229) vcan0 009#825642FC90D46907D
(1762308710.260213) vcan0 009#823644F491316307E
(1762308710.270208) vcan0 009#823646F4916E66F7E
(1762308710.274911) vcan0 009#823646FC916C68F7E
(1762308710.284222) vcan0 009#823646F4915BA2F7E
(1762308710.294232) vcan0 009#825646F4912C28F7D
(1762308710.296067) vcan0 010#15300000000000000
(1762308710.296087) vcan0 002#603F0072BF32A0000
(1762308710.296087) vcan0 003#8313CA92EE8C89E08
(1762308710.296428) vcan0 004#411E3310000000000
(1762308710.296907) vcan0 005#8110E9916717663B6
(1762308710.297359) vcan0 006#85F02002000B40000
(1762308710.297743) vcan0 007#5AD03E02300000000
(1762308710.298051) vcan0 008#20100000000000000
(1762308710.303352) vcan0 009#8256C6F4910DEAF7C
(1762308710.313346) vcan0 009#825748FC90EFEEF7B
(1762308710.323383) vcan0 009#8237CCFC90C1A507B
(1762308710.333377) vcan0 009#823844FCA0C12907B
(1762308710.343414) vcan0 009#825848F4A0CCAAF7C
(1762308710.353408) vcan0 009#8278C8F4A0D6A6F7D
(1762308710.360287) vcan0 009#8298C2FCA0E2EAF7C
(1762308710.369428) vcan0 009#82B94EFC90D4A6F7B
(1762308710.379422) vcan0 009#82DA4CFC909728F7A
(1762308710.389459) vcan0 009#82DACEF4906A26F7A
(1762308710.399453) vcan0 009#829BC8F4905EA2F7B
(1762308710.409447) vcan0 009#829BCCF490356107D
(1762308710.419484) vcan0 009#827BC0FCA02B6F07E
(1762308710.429520) vcan0 009#821B40FCA0412D180
(1762308710.439515) vcan0 009#81DAC2FCA0352B182
(1762308710.448143) vcan0 009#817946F4AFD5D5183
(1762308710.457497) vcan0 009#815846F4AF8199181
(1762308710.467534) vcan0 009#817842F4AF3C1B07E
(1762308710.477528) vcan0 009#8198CCF49F071507B
(1762308710.487565) vcan0 009#81B8C8FC9ED253078
(1762308710.497559) vcan0 009#81D944FC9EAD92F76
(1762308710.507553) vcan0 009#81F940FC9EBA92F75
(1762308710.517590) vcan0 009#81F94EF48EE812F75
(1762308710.527584) vcan0 009#81F8C0F49F2512F76
(1762308710.536895) vcan0 009#8217C0FC9F8DD4E78
(1762308710.546591) vcan0 009#82374EFC8F5A58E78
(1762308710.556585) vcan0 009#82374CF48F2950E78
(1762308710.566622) vcan0 009#8217C8FC8EEA58E77
(1762308710.576616) vcan0 009#81F848F48ECD50E78
(1762308710.586652) vcan0 009#81F94AF48EC256F79
(1762308710.596689) vcan0 009#81F9C0FC9F0810F7B
(1762308710.606683) vcan0 009#81D9C6F49F8E1AF7C
(1762308710.616677) vcan0 009#81B9CCF49012A707E
(1762308710.626671) vcan0 009#81BA42FCA084EF07F
(1762308710.628900) vcan0 009#81BA44F4A0D56D080
(1762308710.638723) vcan0 009#81BA42F4A0E5AF080
(1762308710.648718) vcan0 009#81DAC0FCA0D7A7080
(1762308710.658754) vcan0 009#81DB42FCA0BB2B07F
(1762308710.668748) vcan0 009#81FBC2F4A09CED07E
(1762308710.678742) vcan0 009#821C40F4A06E6307E
(1762308710.688779) vcan0 009#81FBC2FCA01DEF07D
(1762308710.698773) vcan0 009#81FBCAF49FEC1107E
(1762308710.708810) vcan0 009#821B48F49FCC5D07D
(1762308710.717481) vcan0 009#823A40FC9F6BD507B
(1762308710.726793) vcan0 009#8279CCFC8F3C1507A
(1762308710.736830) vcan0 009#8299C8F48F1C97079
(1762308710.746824) vcan0 009#829944F48EFDDD078
(1762308710.756818) vcan0 009#8298C2FC8EDED7078
(1762308710.766854) vcan0 009#829842FC8EEF93078
(1762308710.776849) vcan0 009#8297C2F48F2FD1078
(1762308710.786885) vcan0 009#8277C0F48F8F51078
(1762308710.796879) vcan0 009#8277C0F48FFED7078
(1762308710.806873) vcan0 009#8257C2FC807E21079
(1762308710.808121) vcan0 009#823746FC811D6107A
(1762308710.817902) vcan0 009#8236C8F481BB2307B
(1762308710.827896) vcan0 009#8236CAF482286B07B
(1762308710.837932) vcan0 009#8236CCFC8264E907B
(1762308710.847926) vcan0 009#82374EF482916F07A
(1762308710.857963) vcan0 009#8257CCF4829EA0F7A
(1762308710.867957) vcan0 009#8258CCFC828D22F79
(1762308710.877951) vcan0 009#82794EFC826CE2F78
(1762308710.887988) vcan0 009#825A40F4925CE4F77
(1762308710.896233) vcan0 009#825B4EF4922A2EF76
(1762308710.906014) vcan0 009#827B44FCA1E42AF77
(1762308710.916008) vcan0 009#829B42F4A18C62E78
(1762308710.926044) vcan0 009#82BBC0FCA107AEE77
(1762308710.935996) vcan0 009#82DCCCF49094E8E77
(1762308710.946033) vcan0 009#831D4CF490246AE77
(1762308710.956027) vcan0 009#833DC0F4AF7256E78
(1762308710.966063) vcan0 009#833DC0F4AF5250E7A
(1762308710.976100) vcan0 009#837DCEF49F95D4E7C
(1762308710.986094) vcan0 009#839E4CF49FA91EE7D
(1762308710.988579) vcan0 009#83BDCEFC9F9D9EE7E
(1762308710.998104) vcan0 009#839DC6FCAF9210F7F
(1762308711.008098) vcan0 009#835DCCF4AF9494F7E
(1762308711.018134) vcan0 009#835DCEFCAF961CF7D
(1762308711.028128) vcan0 009#831DC4F4BF8550F7D
(1762308711.038165) vcan0 009#82FE44F4BF4198F7C
(1762308711.048159) vcan0 009#82DE42F4BEFE5AE7C
(1762308711.058153) vcan0 009#82FE4CFCAE9B9CE7C
(1762308711.068190) vcan0 009#82FF46F4AE4A9AE7C
(1762308711.075198) vcan0 009#82BDCAFC9E10D0F7D
(1762308711.085192) vcan0 009#82BCC6F49DF4D6F7D
(1762308711.095186) vcan0 009#827C46FC9DCA5EF7D
(1762308711.105222) vcan0 009#829B40FC9DAEDAF7E
(1762308711.115217) vcan0 009#827A42FC9D51D907F
(1762308711.125253) vcan0 009#825942FC9D1217080
(1762308711.135247) vcan0 009#8238CEFC8D1313081
(1762308711.145241) vcan0 009#823840FC9D139B082
(1762308711.155235) vcan0 009#823842F49D52DD084
(1762308711.165257) vcan0 009#82184AFC9E0455086
(1762308711.167671) vcan0 009#81F7C6F4AF34DF086
(1762308711.177229) vcan0 009#81B6CCFCA071ED086
(1762308711.187246) vcan0 009#8176CEFCA19AA0F86
(1762308711.197230) vcan0 009#817740FCB2406EF84
(1762308711.207225) vcan0 009#81B742F4A262E0E83
(1762308711.217260) vcan0 009#81B84CFC91FA66D80
(1762308711.227244) vcan0 009#8217C6FC9132EAD7D
(1762308711.237281) vcan0 009#8279C4F470C264D7B
(1762308711.247275) vcan0 009#82BAC8F460906AE7A
(1762308711.257269) vcan0 009#82F9C0F4703E26E7A
(1762308711.261418) vcan0 009#829B40F48006E8F7A
(1762308711.271327) vcan0 009#831ACCFC703A66F7D
(1762308711.281245) vcan0 009#835BCEFC709DAEF80
(1762308711.291272) vcan0 009#833C44FC80ACA4F84
(1762308711.298962) vcan0 010#15B00000000000000
(1762308711.298980) vcan0 002#603D80B2BF32A0000
(1762308711.298980) vcan0 003#8373CA90EE8C89E08
(1762308711.299321) vcan0 004#417E3390000000000
(1762308711.299800) vcan0 005#8110E99167D2E67CC
(1762308711.300229) vcan0 006#86102002000B40000
(1762308711.300613) vcan0 007#5A703402500000000
(1762308711.300921) vcan0 008#20100000000000000
(1762308711.301401) vcan0 009#835BC6F480EAA0F88
(1762308711.310371) vcan0 009#835C4AFC8118ACF8A
(1762308711.320407) vcan0 009#837CC8FC81576CF8C
(1762308711.330402) vcan0 009#835D40F491A8A0F8E
(1762308711.340396) vcan0 009#833CC2F491D8A2F8F
(1762308711.345526) vcan0 009#835D44FC924E22F90
(1762308711.355434) vcan0 009#835D48FC9231EB08F
(1762308711.365428) vcan0 009#833D4AFC91E4EF08E
(1762308711.375423) vcan0 009#831CCAFC9187AD08E
(1762308711.385459) vcan0 009#831CC6F490F86108F
(1762308711.395453) vcan0 009#831C42F49048E708F
(1762308711.405447) vcan0 009#833C48F48FB99708F
(1762308711.415484) vcan0 009#833B42F48F5AD108F
(1762308711.425478) vcan0 009#833ACEFC7F0C1708E
(1762308711.434192) vcan0 009#83394CFC7F3D1308E
(1762308711.443504) vcan0 009#8338C6FC8FBBD708E
(1762308711.453540) vcan0 009#83384AFC80976108F
(1762308711.463535) vcan0 009#83374EF481C461090
(1762308711.473529) vcan0 009#8375C6F4926CA0F90
(1762308711.483565) vcan0 009#835548FC9280E0F8F
(1762308711.493559) vcan0 009#8354C6FC92B760E8E
(1762308711.503554) vcan0 009#8334CEF482E12EE8C
(1762308711.513590) vcan0 009#83354CF482DEE4D8C
(1762308711.523584) vcan0 009#835548F482BFEED8B
(1762308711.525600) vcan0 009#83564EF482E568E8B
(1762308711.535636) vcan0 009#835646FC9307E8E8B
(1762308711.545631) vcan0 009#833748F49348ACE8B
(1762308711.555625) vcan0 009#835740F4A357EEE8C
(1762308711.565661) vcan0 009#8378C0FCA32464E8E
(1762308711.575655) vcan0 009#83B8C6FC92E42EE8F
(1762308711.585650) vcan0 009#83B944F4926722E91
(1762308711.595686) vcan0 009#83994EFC81AAEAE91
(1762308711.605680) vcan0 009#839A4AFC812266F92
(1762308711.614565) vcan0 009#83BB4EF48092ED093
(1762308711.623706) vcan0 009#839BC6FC9076ED094
(1762308711.633700) vcan0 009#837B4AFC909767096
(1762308711.643737) vcan0 009#833BCEFC90B4A3098
(1762308711.653731) vcan0 009#833CCEFC90CFA8F9A
(1762308711.663767) vcan0 009#833CC0FCA0DA6EF9C
(1762308711.673762) vcan0 009#831D44FCA115AEF9E
(1762308711.683756) vcan0 009#82DCC2F4A1A42EFA0
(1762308711.693792) vcan0 009#82BBC2FCA1F42AFA2
(1762308711.703786) vcan0 009#827B4EFC9205AEFA3
(1762308711.704948) vcan0 009#8279CEF491B8A0FA4
(1762308711.714815) vcan0 009#825A48FC90FB6EFA2
(1762308711.724809) vcan0 009#827A46F490612B0A1
(1762308711.734845) vcan0 009#8278C2F49FC5130A0
(1762308711.744839) vcan0 009#823840F49F56D909E
(1762308711.754876) vcan0 009#821740FC9F681909D
(1762308711.764870) vcan0 009#8216C0FC9FD7DD09C
(1762308711.774864) vcan0 009#8236C8FC90766909B
(1762308711.784858) vcan0 009#82774AFC9142A3099
(1762308711.794810) vcan0 009#825944FC9297AAF94
(1762308711.803908) vcan0 009#827940F4930428F93
(1762308711.813902) vcan0 009#82794EFC8331E8F92
(1762308711.823939) vcan0 009#8259C6F48340E4F92
(1762308711.833933) vcan0 009#8279C4F48322E8F92
(1762308711.843927) vcan0 009#827AC0F48336A2F93
(1762308711.853964) vcan0 009#82BAC2FC835BEEF93
(1762308711.863958) vcan0 009#829AC4FC83A0EB094
(1762308711.873994) vcan0 009#827B48FC841665096
(1762308711.882069) vcan0 009#823B4EFC84FEEB09B
(1762308711.891977) vcan0 009#821B40FC94E1A919E
(1762308711.902014) vcan0 009#821AC6F494836B1A0
(1762308711.912008) vcan0 009#8219C6FC93D3A31A1
(1762308711.922045) vcan0 009#821944FC93042F19F
(1762308711.932039) vcan0 009#825944F49223A119D
(1762308711.942033) vcan0 009#8299C4FC9162EF198
(1762308711.952070) vcan0 009#8299C4F490D0A9194
(1762308711.962064) vcan0 009#8279CEFC803CE5091
(1762308711.972058) vcan0 009#8279CAFC8FB91708F
(1762308711.973775) vcan0 009#827A46F48F761908E
(1762308711.983086) vcan0 009#829A46F48F849308E
(1762308711.993123) vcan0 009#82BACAFC8FE41D08D
(1762308712.003117) vcan0 009#82DACCF480946508D
(1762308712.013111) vcan0 009#82DB40F49164A108D
(1762308712.023148) vcan0 009#82FB46FC92356708D
(1762308712.033142) vcan0 009#82DBCAF492E56508E
(1762308712.043136) vcan0 009#82DC4AF493456F08F
(1762308712.053173) vcan0 009#82BBCEFC934669091
(1762308712.063167) vcan0 009#829B4CFC92F76D092
(1762308712.063355) vcan0 009#82BB4EF49279A3093
(1762308712.072869) vcan0 009#82BB40F4A1FC2B092
(1762308712.082863) vcan0 009#82DAC2FCA18E25091
(1762308712.092857) vcan0 009#82D9CEFC912F2308F
(1762308712.102894) vcan0 009#82D8CCFC90CF6B08C
(1762308712.112888) vcan0 009#82B7C6FC906DE108A
(1762308712.122925) vcan0 009#8296C2FC900BE7087
(1762308712.132919) vcan0 009#8296C0FC9FA819084
(1762308712.142913) vcan0 009#8296CAFC8F7455081
(1762308712.152907) vcan0 009#8297C8F48F721907D
(1762308712.153350) vcan0 009#8297C6F48FC19F079
(1762308712.162523) vcan0 009#825846FC8031E3077
(1762308712.172517) vcan0 009#825848F480C26B075
(1762308712.182554) vcan0 009#8238CAFC8131AF074
(1762308712.192548) vcan0 009#8238CCF4816FE8F74
(1762308712.202542) vcan0 009#8238CEFC815DA2F74
(1762308712.212579) vcan0 009#823940F4913B28F73
(1762308712.222573) vcan0 009#827AC4FC912966F72
(1762308712.232610) vcan0 009#829B46F49128ECF70
(1762308712.242604) vcan0 009#82BBC8FC90E8AEF6E
(1762308712.248672) vcan0 009#82DCC0F4A087ECF6C
(1762308712.258624) vcan0 009#831DC0F4A035E2F6B
(1762308712.268618) vcan0 009#835DC2F4A00426F6A
(1762308712.278655) vcan0 009#837E42F4AFE25EF69
(1762308712.288649) vcan0 009#839F48F4AFDF96E69
(1762308712.298685) vcan0 009#83DF48F4AFE8DAE69
(1762308712.301469) vcan0 010#15300000000000000
(1762308712.301905) vcan0 002#603C00F2BF32A0000
(1762308712.302078) vcan0 003#8433CA90EE8C89E08
(1762308712.302419) vcan0 004#417E3390000000000
(1762308712.302898) vcan0 005#8110E99169106EE7A
(1762308712.303349) vcan0 006#86102002000B40000
(1762308712.303733) vcan0 007#59706C02200000000
(1762308712.304041) vcan0 008#20100000000000000
(1762308712.308446) vcan0 009#83F0450CA01024E6B
(1762308712.318440) vcan0 009#8430CD049047ECD6D
(1762308712.328434) vcan0 009#8471C30490436AD70
(1762308712.332242) vcan0 009#84B24B0C8FE3DAD75
(1762308712.341425) vcan0 009#84B2C50C8F8A5CD78
(1762308712.351462) vcan0 009#84B2430C8EB198E7C
(1762308712.361456) vcan0 009#84B245048DE9D0E80
(1762308712.371450) vcan0 009#84B1CB0C8D41DEF82
(1762308712.381487) vcan0 009#8491CD048D06D0F85
(1762308712.391481) vcan0 009#8491CF0C8D0AD2F87
(1762308712.401518) vcan0 009#8451410C9D2D96F89
(1762308712.411512) vcan0 009#84304F048D2ED0F8C
(1762308712.421506) vcan0 009#843FC0FC9CF01708E
(1762308712.422350) vcan0 009#843F42FC9CF19D08F
(1762308712.431395) vcan0 009#843E42FC9D0293090
(1762308712.441390) vcan0 009#83FD42FC9D4353090
(1762308712.451384) vcan0 009#83DCC2F49DB217090
(1762308712.461420) vcan0 009#83BC46F49E8FD0F91
(1762308712.471414) vcan0 009#839BC2FC9FAD52F92
(1762308712.481451) vcan0 009#837C42F490ECEEF93
(1762308712.491445) vcan0 009#833CC4FC91FF60F96
(1762308712.501482) vcan0 009#833D4AFC92E525098
(1762308712.511476) vcan0 009#82FE4EFC936CA709A
(1762308712.511913) vcan0 009#82DEC6F4A3A6E319C
(1762308712.521480) vcan0 009#82BD40F4B36FE319D
(1762308712.531517) vcan0 009#825D46F4B2C42929D
(1762308712.541511) vcan0 009#81FC48F4B1C46929D
(1762308712.551548) vcan0 009#81BB40FCB04F6919C
(1762308712.561542) vcan0 009#81BAC8F4AEC91D199
(1762308712.571536) vcan0 009#81DACAFC9D6195195
(1762308712.581573) vcan0 009#81FAC0FC9C9ADB08F
(1762308712.591567) vcan0 009#81FB48FC8C541108A
(1762308712.600665) vcan0 009#81FACEF47D9654F83
(1762308712.610574) vcan0 009#821ACCF47EAE98E82
(1762308712.620610) vcan0 009#823A44F47FA79CE82
(1762308712.630604) vcan0 009#825A46FC7073AEE83
(1762308712.640598) vcan0 009#82B9C0F47131AEE84
(1762308712.650635) vcan0 009#82D9C2F47215EAE85
(1762308712.660629) vcan0 009#82F9C4F4730D64E86
(1762308712.670666) vcan0 009#82DA4CF473E66AF87
(1762308712.680660) vcan0 009#82DB46F484C1E708A
(1762308712.689886) vcan0 009#82DCCAF495A86D191
(1762308712.699667) vcan0 009#82BEC2FCA57FA1195
(1762308712.709661) vcan0 009#829EC8FCA51421298
(1762308712.719698) vcan0 009#827E4EF4A4442B29A
(1762308712.729692) vcan0 009#823D4CFCA32FE519C
(1762308712.739729) vcan0 009#823C4AFCA219AF19C
(1762308712.749723) vcan0 009#823C46F4A1632119C
(1762308712.759759) vcan0 009#825BC4F4A0FAE309A
(1762308712.769753) vcan0 009#825C42FCA0E2A7097
(1762308712.779748) vcan0 009#825C40FCA13A6CF94
(1762308712.780227) vcan0 009#827CCCFC9191AAF92
(1762308712.789794) vcan0 009#825D48FC91D9ACE91
(1762308712.799788) vcan0 009#825D44F491F422E92
(1762308712.809782) vcan0 009#825D40F491DFE0D93
(1762308712.819819) vcan0 009#825D4CF4817D6AD93
(1762308712.829813) vcan0 009#827C4AFC80EC64D94
(1762308712.839850) vcan0 009#827BC8F4808C60D94
(1762308712.849844) vcan0 009#825BC8FC805CE0D93
(1762308712.859881) vcan0 009#827C46FC80A060E92
(1762308712.869491) vcan0 009#825CC8FC81B8A0E91
(1762308712.878888) vcan0 009#823D4AFC825DAEE91
(1762308712.888882) vcan0 009#825DC8FC82E368F93
(1762308712.898876) vcan0 009#825E46F48319E8F95
(1762308712.908913) vcan0 009#825D4CF482C0AB097
(1762308712.918907) vcan0 009#821CC4FC9233A3099
(1762308712.928901) vcan0 009#81FDC6F491F72B09A
(1762308712.938937) vcan0 009#821C40FCA1DA2309C
(1762308712.948932) vcan0 009#81DC48FCA1D9A309C
(1762308712.958926) vcan0 009#819C4AF4A208A309C
(1762308712.960173) vcan0 009#81DBCCF4A2176F09B
(1762308712.969954) vcan0 009#81BC4CFCA2052309A
(1762308712.979990) vcan0 009#81BD40F4B1F36D097
(1762308712.989984) vcan0 009#81FEC6FCB1CFE2F95
(1762308713.000021) vcan0 009#81F04304B16A68F92
(1762308713.010015) vcan0 009#8212410CB094AAF91
(1762308713.020009) vcan0 009#82324B04AFEF56E92
(1762308713.030046) vcan0 009#8231C504AF8C1EE93
(1762308713.040040) vcan0 009#825FCCF49F789AE95
(1762308713.049693) vcan0 009#82BD40FC90472CE96
(1762308713.059047) vcan0 009#82DDCAF480F92EE95
(1762308713.069084) vcan0 009#835F4EFC81BEA6E94
(1762308713.079078) vcan0 009#83914D0C827562F93
(1762308713.089115) vcan0 009#8373CD0482FE6AF93
(1762308713.099109) vcan0 009#8334CF04834A2B096
(1762308713.109103) vcan0 009#82D5430493676119C
(1762308713.119140) vcan0 009#827545049323E52A3
(1762308713.129134) vcan0 009#82544504927FE92AA
(1762308713.138786) vcan0 009#82124B0C9FE55F4B1
(1762308713.148140) vcan0 009#81F04B049E9AD14B2
(1762308713.158177) vcan0 009#819E4AFC9D6CD34B1
(1762308713.168171) vcan0 009#817BCCFC9C9A174AF
(1762308713.178165) vcan0 009#817B44F4AC53134AC
(1762308713.188202) vcan0 009#81BAC4F4ACB8513A8
(1762308713.198196) vcan0 009#81BAC2FCAD8DD72A3
(1762308713.208233) vcan0 009#81FBC2FCAE411929E
(1762308713.218227) vcan0 009#81FCC4FCAF655319A
(1762308713.228221) vcan0 009#81FEC6F4A0CAE7097
(1762308713.235954) vcan0 009#81FFC8F4A22129096
(1762308713.245265) vcan0 009#81B0490CA388A2F97
(1762308713.255259) vcan0 009#815FC8FCA4C264F99
(1762308713.265296) vcan0 009#80FE48F4A5CCE6E9C
(1762308713.275290) vcan0 009#80BD44F4A64922EA0
(1762308713.285284) vcan0 009#80BBC4F4A62762EA3
(1762308713.295321) vcan0 009#80BB42FCA5A720EA4
(1762308713.305315) vcan0 009#80BAC2FCA537A4EA3
(1762308713.315309) vcan0 009#80B9CCF494E8E2EA1
(1762308713.322050) vcan0 010#15B00000000000000
(1762308713.322050) vcan0 002#603A8132BF32A0000
(1762308713.322050) vcan0 003#8433CA90EE8C89E08
(1762308713.322392) vcan0 004#447E3390000000000
(1762308713.322828) vcan0 005#8110E9916A19EECC1
(1762308713.323215) vcan0 006#86302002000B40000
(1762308713.323599) vcan0 007#5E103C01F00000000
(1762308713.323865) vcan0 008#20100000000000000
(1762308713.324345) vcan0 009#8098CAFC948D24E9A
(1762308713.333358) vcan0 009#8057C8F4948D24E96
(1762308713.343352) vcan0 009#8036C0FC947BA8E92
(1762308713.353388) vcan0 009#8056CCF48479A2E8E
(1762308713.363382) vcan0 009#8097CAFC8498AEE88
(1762308713.373419) vcan0 009#80B848FC84F924E83
(1762308713.383413) vcan0 009#80B848FC855AAEE7D
(1762308713.393407) vcan0 009#80D8C6F485CDE0E79
(1762308713.403444) vcan0 009#80B9CAFC85D120F75
(1762308713.408233) vcan0 009#80D948FC84E52CF6F
(1762308713.417459) vcan0 009#80D94AF48407A2F6E
(1762308713.427453) vcan0 009#8119CAFC831B28F6C
(1762308713.437447) vcan0 009#813ACCFC8230A906A
(1762308713.447484) vcan0 009#815B4EFC816629068
(1762308713.457478) vcan0 009#813BCEF480BBA1067
(1762308713.467515) vcan0 009#811B4EFC802FED065
(1762308713.477509) vcan0 009#811ACEFC8FB2DD164
(1762308713.487545) vcan0 009#80FAC0FC9F8513163
(1762308713.497497) vcan0 009#811AC2F49F5451161
(1762308713.498787) vcan0 009#813BC4FC9F329F15D
(1762308713.508568) vcan0 009#81BD48FC9F405D159
(1762308713.518562) vcan0 009#821EC8FC9F5D9B054
(1762308713.528556) vcan0 009#82704B0C9F6BDD04F
(1762308713.538592) vcan0 009#82D1CD049F699504C
(1762308713.548587) vcan0 009#82F24D049F269D04A
(1762308713.558581) vcan0 009#8311C90C9E821904B
(1762308713.568617) vcan0 009#831141049D7DD4F4E
(1762308713.578611) vcan0 009#833FCCFC8C3B16F52
(1762308713.588051) vcan0 009#835E42FC8B2C56F5A
(1762308713.597618) vcan0 009#835F44F48B90D905D
(1762308713.607655) vcan0 009#8350CB0C8CA6DD060
(1762308713.617649) vcan0 009#8331C70C9E5DDB064
(1762308713.627686) vcan0 009#82D2CF0C9FF213169
(1762308713.637680) vcan0 009#82724B0CA133E916E
(1762308713.647674) vcan0 009#8231410CB1B0AF173
(1762308713.657711) vcan0 009#81FFC0FCB15961079
(1762308713.667747) vcan0 009#81FECAFCA02F68F7C
(1762308713.677699) vcan0 009#821DC2FCAEA550F7E
(1762308713.678346) vcan0 009#825CC8FC9D4E18E7D
(1762308713.687520) vcan0 009#827CC0FC9C6C1AE7B
(1762308713.697514) vcan0 009#829D46F48C2C90E79
(1762308713.707550) vcan0 009#82BE42FC8C511EF75
(1762308713.717545) vcan0 009#82DFC4FC8CF7DAF72
(1762308713.727539) vcan0 009#82F0C70C8DE053070
(1762308713.737575) vcan0 009#8311CD0C8EE89F06E
(1762308713.747569) vcan0 009#82F245049FAE9B06E
(1762308713.757606) vcan0 009#82D24B0C9FE0DD16F
(1762308713.767600) vcan0 009#82D14F049FD053172
(1762308713.768080) vcan0 009#82D0410CAF5CD5075
(1762308713.777604) vcan0 009#82BF4AF49EB895078
(1762308713.787641) vcan0 009#827ECAFC9E269F07A
(1762308713.797635) vcan0 009#825ECCF49DF4DB07D
(1762308713.807629) vcan0 009#823F4CF49E4495080
(1762308713.817666) vcan0 009#821FC2FCAEC4D7082
(1762308713.827660) vcan0 009#81FFC8FCAF641D083
(1762308713.837697) vcan0 009#81BECCFCAFE295084
(1762308713.847691) vcan0 009#819EC0FCB00E22F84
(1762308713.857685) vcan0 009#819D4EFCAFB7DCF83
(1762308713.858164) vcan0 009#819CCAF4AF10D8F82
(1762308713.867732) vcan0 009#81BC42FCAE499AE80
(1762308713.877726) vcan0 009#81DBCCF49DB498E7E
(1762308713.887720) vcan0 009#81DB46FC9D61DCE7C
(1762308713.897757) vcan0 009#81DAC2F49DA1D4E7B
(1762308713.907751) vcan0 009#81DA4EF48E3394E7A
(1762308713.917745) vcan0 009#81D9CEFC8EF71CE79
(1762308713.927781) vcan0 009#81D9C2F49FB9DEE79
(1762308713.937776) vcan0 009#81BA46FC904BAAE7A
(1762308713.947002) vcan0 009#819ACAF4909CE0E7D
(1762308713.956825) vcan0 009#81BBCEF4905C20E7E
(1762308713.966819) vcan0 009#81BC4EFC902C26E7E
(1762308713.976813) vcan0 009#81DD4EFC900DAAE7E
(1762308713.986850) vcan0 009#81DDCEFC9FE012F7F
(1762308713.996844) vcan0 009#81FDCCFC9FD29CF7F
(1762308714.006881) vcan0 009#81FDCAFC9FC4D8F80
(1762308714.016875) vcan0 009#81FDC8FC9FA6D6F81
(1762308714.026912) vcan0 009#81FD46F49F9810F82
(1762308714.036052) vcan0 009#81DCC4F49F875EF81
(1762308714.045918) vcan0 009#81FD44FC9F8610F81
(1762308714.055912) vcan0 009#821D44FC9F94DEF7F
(1762308714.065907) vcan0 009#821D4EF48FA3D0F7F
(1762308714.075943) vcan0 009#821CCCF48F939EF7E
(1762308714.085937) vcan0 009#821D48FC8F8418F7F
(1762308714.095974) vcan0 009#821CC6F48F8558F80
(1762308714.105968) vcan0 009#823CC6FC8F779AF81
(1762308714.115962) vcan0 009#825CC8F48F7A14F82
(1762308714.125999) vcan0 009#827C48F48F8C16F82
(1762308714.126348) vcan0 009#825C4AFC8F8E10F82
(1762308714.135863) vcan0 009#825C4CF48F9F50F82
(1762308714.145857) vcan0 009#825BCEF48FAF16F82
(1762308714.155894) vcan0 009#823BCCFC8FBE10F83
(1762308714.165888) vcan0 009#823BCCFC8FBD5EF83
(1762308714.175925) vcan0 009#825BCCF48FBC9EF84
(1762308714.185919) vcan0 009#827B4EFC8FCC9CF85
(1762308714.195956) vcan0 009#827BC0FC900CE0F86
(1762308714.205950) vcan0 009#829BC2FC905DA2F86
(1762308714.215944) vcan0 009#829BC4FC90AE66F86
(1762308714.218087) vcan0 009#829C46F4910F2EF86
(1762308714.227996) vcan0 009#82BCC6FC913F6EF87
(1762308714.237990) vcan0 009#829E4AF4916FE2F89
(1762308714.247984) vcan0 009#829F4EF49180AD08A
(1762308714.257978) vcan0 009#8250430CA192A508C
(1762308714.268015) vcan0 009#8230C904A1B5EB08D
(1762308714.278009) vcan0 009#8230CF0CA1B92708E
(1762308714.288046) vcan0 009#82114104B1BBE708E
(1762308714.298040) vcan0 009#8212470CB17EA308E
(1762308714.308034) vcan0 009#81F2CB0CB1312F18D
(1762308714.309622) vcan0 009#81F34F0CB0E1E918D
(1762308714.319062) vcan0 009#81F2CD0CB0712518D
(1762308714.319351) vcan0 010#16300000000000000
(1762308714.319351) vcan0 002#60390172BF32A0000
(1762308714.319820) vcan0 003#8453CA9CEE7C89E08
(1762308714.320171) vcan0 004#469E3390000000000
(1762308714.320608) vcan0 005#8110E9916B5B6E98F
(1762308714.321130) vcan0 006#86302002000B40000
(1762308714.321524) vcan0 007#5C904C01900000000
(1762308714.321790) vcan0 008#20100000000000000
(1762308714.328499) vcan0 009#81D2CB04B00FE108D
(1762308714.338493) vcan0 009#81B24704BF8E1308D
(1762308714.348487) vcan0 009#81B1430CBF0CDB08D
(1762308714.358524) vcan0 009#81D0CD04AEAC1308E
(1762308714.368518) vcan0 009#81F04704AE5C1108E
(1762308714.378554) vcan0 009#81FF40F4AE1D5308D
(1762308714.388548) vcan0 009#821E4CF49DFEDD08B
(1762308714.394617) vcan0 009#821D44FC9E1013189
(1762308714.404569) vcan0 009#81FD44FC9E6013188
(1762308714.414563) vcan0 009#81FD42F49EEF9F087
(1762308714.424599) vcan0 009#81FCC2FC9F6ED5088
(1762308714.434593) vcan0 009#81DC44FC9FCCDD088
(1762308714.444588) vcan0 009#81DB44F49029A1089
(1762308714.454624) vcan0 009#81FAC2F49055AB088
(1762308714.464618) vcan0 009#81FA42F49061AD087
(1762308714.474655) vcan0 009#823AC2F4907DE6F86
(1762308714.482516) vcan0 009#827B4EF480776AF83
(1762308714.491657) vcan0 009#825C4AFC8034A8F83
(1762308714.501693) vcan0 009#823CC8FC8FE298F84
(1762308714.511687) vcan0 009#823CCAFC8FB194F86
(1762308714.521681) vcan0 009#823C4AFC8FB256F87
(1762308714.531718) vcan0 009#823C4AFC8FB398F87
(1762308714.541712) vcan0 009#825CCCF48FD5DAF86
(1762308714.551749) vcan0 009#827DCEFC800960F85
(1762308714.561743) vcan0 009#829E44FC904D26F83
(1762308714.571737) vcan0 009#82BECAF4906EA2F82
(1762308714.574606) vcan0 009#827F4EFC905D6EF81
(1762308714.583747) vcan0 009#825EC2F4A038ECF82
(1762308714.593783) vcan0 009#823E42FCAFF15EF83
(1762308714.603777) vcan0 009#823DCEF49FE9D4E84
(1762308714.613772) vcan0 009#823DCAFC9FF51AE83
(1762308714.623808) vcan0 009#825DC8FC9033EEE81
(1762308714.633802) vcan0 009#829DC6F490B564E7F
(1762308714.643839) vcan0 009#829DC4FC912868E7C
(1762308714.653833) vcan0 009#827DC2F4916BA8E7A
(1762308714.663827) vcan0 009#827DC2FC915E64E79
(1762308714.665501) vcan0 009#827DC0F491402CF78
(1762308714.674855) vcan0 009#825DC0FC9121ACF78
(1762308714.684849) vcan0 009#825DC2F49123EAF78
(1762308714.694886) vcan0 009#825E46F49146A6F78
(1762308714.704880) vcan0 009#827ECAFC91792AF77
(1762308714.714917) vcan0 009#827ECAFC919B6EF76
(1762308714.724911) vcan0 009#827ECAF4917BEEF76
(1762308714.734905) vcan0 009#827ECAF4911AECF77
(1762308714.744942) vcan0 009#82BE48F490992CF78
(1762308714.754765) vcan0 009#82FE4EFC8F76DAF79
(1762308714.763949) vcan0 009#831E48F48F2856F79
(1762308714.773943) vcan0 009#831EC6F48F1BD8F79
(1762308714.783980) vcan0 009#831EC8FC8F301F079
(1762308714.793974) vcan0 009#82FEC6FC8F83DB07A
(1762308714.804010) vcan0 009#82DEC4F48FC75B07B
(1762308714.814004) vcan0 009#82DE44FC8FEB9307D
(1762308714.824041) vcan0 009#82BDC8FC800F6507E
(1762308714.834035) vcan0 009#829CCCFC80112917E
(1762308714.844029) vcan0 009#829BCCF48020A717D
(1762308714.844346) vcan0 009#829BCCF4803E6107B
(1762308714.853434) vcan0 009#829C4EF4806BEF077
(1762308714.863471) vcan0 009#82BC4CFC80C96F074
(1762308714.873465) vcan0 009#82BCCAF48147A9072
(1762308714.883502) vcan0 009#82BD4AF481D62F070
(1762308714.893496) vcan0 009#82BD4AFC8265A1070
(1762308714.903490) vcan0 009#82BD4CFC82E4A906F
(1762308714.913527) vcan0 009#82BCCEFC8332A106F
(1762308714.923521) vcan0 009#82DCCCF4833FA2F6E
(1762308714.933515) vcan0 009#82FD4EF482FD60F6D
(1762308714.934037) vcan0 009#833DCCF4828B62F6C
(1762308714.943562) vcan0 009#833ECAF4821B22F6C
(1762308714.953556) vcan0 009#837FCCFC81BD60F6D
(1762308714.963593) vcan0 009#839FCCF481712B06E
(1762308714.973587) vcan0 009#839FCCF48125E7070
(1762308714.983581) vcan0 009#839F4EF480B9EB072
(1762308714.993617) vcan0 009#837EC0FC904CAF074
(1762308715.003612) vcan0 009#835EC2FC9FEF1B076
(1762308715.013648) vcan0 009#833EC2FC9F915F177
(1762308715.023642) vcan0 009#833EC6FC9F539D178
(1762308715.024890) vcan0 009#833EC8F49F25D7179
(1762308715.034670) vcan0 009#831ECAF49ED81D179
(1762308715.044665) vcan0 009#82DE40F4AE899D179
(1762308715.054659) vcan0 009#82BD42F4AE47DB179
(1762308715.064695) vcan0 009#829C44F4AE039D178
(1762308715.074689) vcan0 009#825C42F4ADDD9B077
(1762308715.084726) vcan0 009#825BC0FCADC7D1076
(1762308715.094720) vcan0 009#825C4EF49E03D1074
(1762308715.104757) vcan0 009#825C4CFC9E519F071
(1762308715.112788) vcan0 009#827D4AFC9F005B06D
(1762308715.122740) vcan0 009#829D4AF49F205106C
(1762308715.132777) vcan0 009#82DDCAF49EEFD2F6B
(1762308715.142771) vcan0 009#831E48F49E7F1EF6A
(1762308715.152765) vcan0 009#833E46FC9DEE56F6B
(1762308715.162801) vcan0 009#833EC2F49D5E5EF6C
(1762308715.172796) vcan0 009#835EC0F49CEFD2F6F
(1762308715.182832) vcan0 009#837F4EF48CC45B071
(1762308715.192826) vcan0 009#83504F048D0BD5074
(1762308715.202820) vcan0 009#82F0C90C9D949B177
(1762308715.203341) vcan0 009#82B1C504AE9D5F17B
(1762308715.212386) vcan0 009#82724504BFC45B280
(1762308715.222380) vcan0 009#8232CF0CB0B661285
(1762308715.232374) vcan0 009#81D2C90CC123EF288
(1762308715.242411) vcan0 009#8191CD04C0FBE918B
(1762308715.252405) vcan0 009#81714D0CC041EB18C
(1762308715.262399) vcan0 009#8170C504CF369B08B
(1762308715.272436) vcan0 009#81704D04BE1C5EF88
(1762308715.282430) vcan0 009#8170C304BD339EF84
(1762308715.292424) vcan0 009#8171470CACDE1AE80
(1762308715.298920) vcan0 009#8171CB049CFBDAE7C
(1762308715.307975) vcan0 010#15B00000000000000
(1762308715.308412) vcan0 002#603781B2BF32A0000
(1762308715.308891) vcan0 003#8533CA94EE7C89E08
(1762308715.309242) vcan0 004#463E3390000000000
(1762308715.309722) vcan0 005#8110E9916C54EE85B
(1762308715.310088) vcan0 006#86502002000B40000
(1762308715.310472) vcan0 007#56105401600000000
(1762308715.310781) vcan0 008#20100000000000000
(1762308715.311217) vcan0 009#817243049D4C90E79
(1762308715.318438) vcan0 009#81924D0C8DCF92E76
(1762308715.328432) vcan0 009#81B2C70C8E531CF73
(1762308715.338469) vcan0 009#81B2430C8ED652F72
(1762308715.348463) vcan0 009#8191C3048F4858F71
(1762308715.358500) vcan0 009#8150C5048FB95EF71
(1762308715.368494) vcan0 009#8130470C80292CF72
(1762308715.378530) vcan0 009#81304B0C80B82AF73
(1762308715.381399) vcan0 009#813FC4F49204AAF75
(1762308715.390540) vcan0 009#8130490C92A22EF76
(1762308715.400534) vcan0 009#81304F04933EA6E78
(1762308715.410528) vcan0 009#813FC2FCA38AECE79
(1762308715.420565) vcan0 009#8130490CA3C826E7A
(1762308715.430559) vcan0 009#8130CD0CA3D566E7A
(1762308715.440553) vcan0 009#81314F0CA3B3A4E7A
(1762308715.450590) vcan0 009#8131410CB352E2E7A
(1762308715.460584) vcan0 009#8171CF04A2B1ACE79
(1762308715.470407) vcan0 009#81B2470CA0C268E79
(1762308715.479591) vcan0 009#81D1CD0C9F855EE79
(1762308715.489627) vcan0 009#81D1C7049E2A1AE7A
(1762308715.499621) vcan0 009#81D0C1049CE0DEF7B
(1762308715.509658) vcan0 009#81DF4AFC8BE7D2F7D
(1762308715.519652) vcan0 009#81BE46FC8B3E50F7E
(1762308715.529689) vcan0 009#819CC4F48AD41907E
(1762308715.539683) vcan0 009#817B44FC8AC8D907E
(1762308715.549720) vcan0 009#8179C2FC8B0B5F07D
(1762308715.559714) vcan0 009#8178C2FC8B7C5907C
(1762308715.562583) vcan0 009#817844F48C0C5307A
(1762308715.571723) vcan0 009#8197C4FC8C8B55077
(1762308715.581717) vcan0 009#81B7C6F48D1915074
(1762308715.591754) vcan0 009#81D846F48DB65B071
(1762308715.601748) vcan0 009#81D948F48E539B06F
(1762308715.611742) vcan0 009#81FA48F48EE15B06E
(1762308715.621779) vcan0 009#825B4AFC8F6FD8F6E
(1762308715.631773) vcan0 009#82BCCAFC8FDF14F6E
(1762308715.641810) vcan0 009#82FDCEFC802F24F6E
(1762308715.650652) vcan0 009#831ECEFC804E26F70
(1762308715.659793) vcan0 009#831EC0FC901D6EF72
(1762308715.669829) vcan0 009#833F40FC9FCC52F76
(1762308715.679824) vcan0 009#835041049F7BD6F79
(1762308715.689860) vcan0 009#839145049F2C58F7C
(1762308715.699854) vcan0 009#83B2470C9EFD92F7F
(1762308715.709848) vcan0 009#83B2CB0C9EEE96F81
(1762308715.719885) vcan0 009#8373C10CAEFE96F83
(1762308715.729879) vcan0 009#8373C504AF3DD4F85
(1762308715.739831) vcan0 009#83534B04AF895AF87
(1762308715.748886) vcan0 009#8332CD04AF965CF88
(1762308715.758923) vcan0 009#82F1C10CBF9350F8A
(1762308715.768917) vcan0 009#82D04304BFBF92E8B
(1762308715.778954) vcan0 009#82DF44FCBFDA1AE8B
(1762308715.788948) vcan0 009#82DEC4FCB02422E8B
(1762308715.798984) vcan0 009#82BE40FCB09F64D8A
(1762308715.808979) vcan0 009#82BE4CFCA10C68D89
(1762308715.818973) vcan0 009#82BE48FCA17CA4D89
(1762308715.828967) vcan0 009#829E44F4A1E0AAE89
(1762308715.830939) vcan0 009#827F46FCA2272AE8A
(1762308715.839995) vcan0 009#825FC8F4A25FA4E8C
(1762308715.850032) vcan0 009#825FCCF4A247ECF8D
(1762308715.860026) vcan0 009#8250C10CB1CF64F8E
(1762308715.870020) vcan0 009#8231450CB1056308E
(1762308715.880056) vcan0 009#8230C10CB008AB08D
(1762308715.890050) vcan0 009#8210CF04AEDA1F08C
(1762308715.900087) vcan0 009#81F04504AD7A5108C
(1762308715.910081) vcan0 009#81FFC0FCAC5B9F08A
(1762308715.921014) vcan0 009#821ECAF49BCC57089
(1762308715.922304) vcan0 009#825EC6F49B9E11087
(1762308715.932085) vcan0 009#829E44F49BBF51084
(1762308715.942122) vcan0 009#829DC2F49C1017180
(1762308715.952116) vcan0 009#829E42F49C8FDF07C
(1762308715.962152) vcan0 009#829EC2FC9D0D9507A
(1762308715.972146) vcan0 009#829F44F49DAB5D078
(1762308715.982183) vcan0 009#829FC2FC9E2913078
(1762308715.992177) vcan0 009#829FC0F49EA7D5078
(1762308716.002214) vcan0 009#829FCEFC8F0855079
(1762308716.012208) vcan0 009#829FCEFC8F691307B
(1762308716.014053) vcan0 009#82B04F0C8FDA5B07D
(1762308716.023236) vcan0 009#829FCEF4804B6B080
(1762308716.033230) vcan0 009#829FCEF4808B27083
(1762308716.043224) vcan0 009#827F40FC90A92B085
(1762308716.053218) vcan0 009#827F40F490D6AF086
(1762308716.063255) vcan0 009#827EC0FC90E461087
(1762308716.073249) vcan0 009#827EC0F490F1E3086
(1762308716.083286) vcan0 009#829DCCF480CD62F85
(1762308716.093280) vcan0 009#82BE4AF4809BAAF83
(1762308716.103274) vcan0 009#82BE44F48019E4F82
(1762308716.103415) vcan0 009#82DEC0FC8F99D2F82
(1762308716.112930) vcan0 009#831ECEFC7F5C94F82
(1762308716.122924) vcan0 009#831ECCFC7F1F90F83
(1762308716.132918) vcan0 009#82FDCEF47ED1D9084
(1762308716.142955) vcan0 009#82BCCCF47EA259086
(1762308716.152949) vcan0 009#829BCCFC7E7113088
(1762308716.162986) vcan0 009#829ACCFC7E6F16F89
(1762308716.172980) vcan0 009#827A4AF47E6C9CF89
(1762308716.183016) vcan0 009#825A48FC7E6A18F89
(1762308716.190578) vcan0 009#8259C8F47F1A1EF87
(1762308716.200018) vcan0 009#823948FC7F89DEF86
(1762308716.210055) vcan0 009#81F8CCF47018A0F86
(1762308716.220049) vcan0 009#81D84CFC709662F85
(1762308716.230043) vcan0 009#81D84CFC70E366F84
(1762308716.240037) vcan0 009#81D7CEF4712126F83
(1762308716.250074) vcan0 009#81B7CEFC713FA6E82
(1762308716.260068) vcan0 009#8197CCFC712E62E81
(1762308716.270062) vcan0 009#81B7CAF4712EACE7F
(1762308716.280099) vcan0 009#81D7CAFC7110E2F7E
(1762308716.288813) vcan0 009#81D84CFC71256AF7C
(1762308716.298124) vcan0 009#81D840F4814A66F7B
(1762308716.307179) vcan0 010#15300000000000000
(1762308716.307464) vcan0 002#603601F2BF32A0000
(1762308716.307465) vcan0 003#8573CA9EEE6C89E08
(1762308716.307807) vcan0 004#479E3310000000000
(1762308716.308286) vcan0 005#8110E9916D51E645E
(1762308716.308690) vcan0 006#86702002000B40000
(1762308716.309074) vcan0 007#56105002100000000
(1762308716.309383) vcan0 008#20100000000000000
(1762308716.309862) vcan0 009#81D844FC815DAAF7A
(1762308716.317510) vcan0 009#81F846FC816F60F7A
(1762308716.327504) vcan0 009#82184AF4817021079
(1762308716.337541) vcan0 009#82384EF481806B077
(1762308716.347535) vcan0 009#8278C4F491A0EF075
(1762308716.357529) vcan0 009#82B8CCF49202A3074
(1762308716.367566) vcan0 009#82F948FCA28423072
(1762308716.369880) vcan0 009#8378C4FCC32E20F6E
(1762308716.379575) vcan0 009#83F7C8FCD2FBE6E6C
(1762308716.389569) vcan0 009#843BC8FCC338A2D6C
(1762308716.399563) vcan0 009#84BCCCF4B3B268D6F
(1762308716.409600) vcan0 009#84FE4EF4A3B2A6D73
(1762308716.419594) vcan0 009#851EC8FCA32924D78
(1762308716.429588) vcan0 009#851E48F4A2742CE7C
(1762308716.439625) vcan0 009#84FE4AF4A17DECE80
(1762308716.449662) vcan0 009#84FECCFCA05664F84
(1762308716.459613) vcan0 009#84B0CF04AF5D54F87
(1762308716.460092) vcan0 009#84524B04BED6D508A
(1762308716.469660) vcan0 009#83F24504CECE1708D
(1762308716.479654) vcan0 009#8371C90CCEB0D1190
(1762308716.489691) vcan0 009#82F1C104CE1C17091
(1762308716.499685) vcan0 009#82B14304BCF71F091
(1762308716.509679) vcan0 009#8270C50CAB51D9091
(1762308716.519715) vcan0 009#823F4AF499BD56F90
(1762308716.529752) vcan0 009#823DC2FC9859D8F8E
(1762308716.539746) vcan0 009#821CC6F487A790F8D
(1762308716.548588) vcan0 009#8239C8F47819D4F8B
(1762308716.557772) vcan0 009#8238CAFC795CD8F89
(1762308716.567766) vcan0 009#8238C0F48B4F1EF86
(1762308716.577803) vcan0 009#8238C6FC8D8FD2F84
(1762308716.587797) vcan0 009#8239CCFC8FCE52F81
(1762308716.597791) vcan0 009#821AC4FC91CBEEF7E
(1762308716.607827) vcan0 009#81FBCAFC9367ACF7D
(1762308716.617822) vcan0 009#81DC4EFC94822EF7D
(1762308716.627858) vcan0 009#81FD40FCA52CEEE7E
(1762308716.637810) vcan0 009#821DC2FCA55860E80
(1762308716.638929) vcan0 009#821E40F4A55460E81
(1762308716.648880) vcan0 009#823E4AF4950122E82
(1762308716.658874) vcan0 009#825DC2FC946FA6D83
(1762308716.668869) vcan0 009#827DCAF483BFE8D84
(1762308716.678905) vcan0 009#829DC2FC82F26AE85
(1762308716.688899) vcan0 009#82BCC0FC8236A4E86
(1762308716.698893) vcan0 009#82DBCCFC71AC64E86
(1762308716.708930) vcan0 009#831B4AF471112EF84
(1762308716.718924) vcan0 009#833AC8F47084E8F82
(1762308716.727980) vcan0 009#831AC6F4701AAEF7E
(1762308716.737931) vcan0 009#833B44F4701C2EF7E
(1762308716.747968) vcan0 009#833BC2FC701E6EF7F
(1762308716.757962) vcan0 009#831BC2F470116D081
(1762308716.767999) vcan0 009#831AC8FC7004AF083
(1762308716.777993) vcan0 009#82F9CAFC7FE55D085
(1762308716.787987) vcan0 009#8319CCFC7FD5D3087
(1762308716.798024) vcan0 009#8319C0F48FE691088
(1762308716.808018) vcan0 009#8319C2F48006E3088
(1762308716.818012) vcan0 009#82FAC4FC80472F087
(1762308716.819131) vcan0 009#831B46F480A7ED087
(1762308716.829040) vcan0 009#831BCAF48118AF087
(1762308716.839077) vcan0 009#831C4EFC817963088
(1762308716.849071) vcan0 009#831C42FC91CA23089
(1762308716.859065) vcan0 009#831BC4F491E9A708A
(1762308716.869101) vcan0 009#82FB44F491A82F08B
(1762308716.879096) vcan0 009#82FB46FC9135E508D
(1762308716.889132) vcan0 009#831BC8F490E4A308E
(1762308716.899126) vcan0 009#833CCAFC90B4AB08E
(1762308716.907670) vcan0 009#833DC0FCA0A56D08F
(1762308716.917152) vcan0 009#833DC2F4A0B56D090
(1762308716.927146) vcan0 009#831DC4FCA0A3EB091
(1762308716.937183) vcan0 009#831CC4FCA06125092
(1762308716.947177) vcan0 009#831C42FCA00DE2F92
(1762308716.957171) vcan0 009#833BC0F4AFCA94F91
(1762308716.967208) vcan0 009#835BCEFC9FA7DEF8F
(1762308716.977202) vcan0 009#835BCAFC9FB5D6F8E
(1762308716.987238) vcan0 009#837BC8FC900566F8D
(1762308716.997190) vcan0 009#837BC6F490A662F8D
