  vcan0  009   [8]  81 9E 40 F4 9D 91 D5 37 ::
GnssImu(
    ImuValid: Valid,
    AccelerationX: 40.0 m/s^2,
    AccelerationY: -61.625 m/s^2,
    AccelerationZ: 52.25 m/s^2,
    AngularRateX: -49.25 deg/s,
    AngularRateY: 89.0 deg/s,
    AngularRateZ: -144.5 deg/s
)
  vcan0  009   [8]  81 7E 46 FC 9D E3 19 37 ::
GnssImu(
    ImuValid: Valid,
    AccelerationX: 40.0 m/s^2,
    AccelerationY: -38.125 m/s^2,
    AccelerationZ: 60.25 m/s^2,
    AngularRateX: 206.75 deg/s,
    AngularRateY: 158.0 deg/s,
    AngularRateZ: -146.0 deg/s
)
  vcan0  009   [8]  81 3D CC F4 9E 4F 9F 27 ::
GnssImu(
    ImuValid: Valid,
    AccelerationX: 24.0 m/s^2,
    AccelerationY: -15.125 m/s^2,
    AccelerationZ: 52.75 m/s^2,
    AngularRateX: 207.25 deg/s,
    AngularRateY: 244.75 deg/s,
    AngularRateZ: -177.0 deg/s
)
  vcan0  009   [8]  80 FD CE F4 9E 87 99 27 ::
GnssImu(
    ImuValid: Invalid,
    AccelerationX: 24.0 m/s^2,
    AccelerationY: -4.125 m/s^2,
    AccelerationZ: 52.75 m/s^2,
    AngularRateX: 207.25 deg/s,
    AngularRateY: 152.25 deg/s,
    AngularRateZ: -177.0 deg/s
)
  vcan0  009   [8]  80 DD C0 FC AE AC D3 18 ::
GnssImu(
    ImuValid: Invalid,
    AccelerationX: 24.0 m/s^2,
    AccelerationY: -60.625 m/s^2,
    AccelerationZ: 60.75 m/s^2,
    AngularRateX: -168.75 deg/s,
    AngularRateY: 58.75 deg/s,
    AngularRateZ: -206.5 deg/s
)
  vcan0  009   [8]  80 BC CC FC 9F 47 9D 08 ::
GnssImu(
    ImuValid: Invalid,
    AccelerationX: 8.0 m/s^2,
    AccelerationY: -13.125 m/s^2,
    AccelerationZ: 60.75 m/s^2,
    AngularRateX: 207.75 deg/s,
    AngularRateY: 212.25 deg/s,
    AngularRateZ: -239.0 deg/s
)
  vcan0  009   [8]  80 BC 4A FC 9F AD D4 F8 ::
GnssImu(
    ImuValid: Invalid,
    AccelerationX: 8.0 m/s^2,
    AccelerationY: -21.125 m/s^2,
    AccelerationZ: 60.25 m/s^2,
    AngularRateX: -48.25 deg/s,
    AngularRateY: 74.75 deg/s,
    AngularRateZ: 241.5 deg/s
)
  vcan0  010   [8]  15 30 00 00 00 00 00 00 :: Unknown frame id 16 (0x10)
  vcan0  002   [8]  60 35 74 A2 BF 32 A0 00 :: Wrong data size: 8 instead of 6 bytes
  vcan0  003   [8]  8A 33 CA 94 ED 9C 89 E0 ::
GnssPosition(
    PositionValid: Invalid,
    Latitude: 84.39789299999998 deg,
    Longitude: -107.851156 deg,
    PositionAccuracy: 56 m
)
  vcan0  004   [8]  47 BE 32 90 00 00 00 00 :: Wrong data size: 8 instead of 4 bytes
  vcan0  005   [8]  81 10 E1 9D 1A 82 CD 75 ::
GnssAttitude(
    AttitudeValid: Valid,
    Roll: 31.200000000000017 deg,
    RollAccuracy: 26.400000000000002 deg,
    Pitch: 177.90000000000003 deg,
    PitchAccuracy: 13.4 deg,
    Heading: 248.0 deg,
    HeadingAccuracy: 23.5 deg
)
  vcan0  006   [8]  87 D0 20 02 00 0B 40 00 ::
GnssOdo(
    DistanceValid: Valid,
    DistanceTrip: 1075267 m,
    DistanceAccuracy: 393220 m,
    DistanceTotal: 4098 km
)
  vcan0  007   [8]  5E 90 94 02 40 00 00 00 :: Wrong data size: 8 instead of 5 bytes
  vcan0  008   [8]  20 10 00 00 00 00 00 00 :: Wrong data size: 8 instead of 2 bytes
  vcan0  009   [8]  80 BB C6 FC 9F F4 58 F7 ::
GnssImu(
    ImuValid: Invalid,
    AccelerationX: -8.0 m/s^2,
    AccelerationY: -37.125 m/s^2,
    AccelerationZ: 60.75 m/s^2,
    AngularRateX: -176.25 deg/s,
    AngularRateY: 143.25 deg/s,
    AngularRateZ: 238.5 deg/s
)
  vcan0  009   [8]  80 DB 40 FC 90 1B E2 E7 ::
GnssImu(
    ImuValid: Invalid,
    AccelerationX: -8.0 m/s^2,
    AccelerationY: -60.625 m/s^2,
    AccelerationZ: 60.25 m/s^2,
    AngularRateX: 200.25 deg/s,
    AngularRateY: -222.5 deg/s,
    AngularRateZ: 207.75 deg/s
)
  vcan0  009   [8]  81 1B 48 FC 80 15 2A E7 ::
GnssImu(
    ImuValid: Valid,
    AccelerationX: -8.0 m/s^2,
    AccelerationY: -31.625 m/s^2,
    AccelerationZ: 60.25 m/s^2,
    AngularRateX: -63.75 deg/s,
    AngularRateY: -94.75 deg/s,
    AngularRateZ: 206.25 deg/s
)
  vcan0  009   [8]  81 5B C2 FC 8F F0 D2 E7 ::
GnssImu(
    ImuValid: Valid,
    AccelerationX: -8.0 m/s^2,
    AccelerationY: -54.625 m/s^2,
    AccelerationZ: 60.75 m/s^2,
    AngularRateX: -184.25 deg/s,
    AngularRateY: 47.0 deg/s,
    AngularRateZ: 207.5 deg/s
)
  vcan0  009   [8]  81 7C 4C FC 7F CE 9E D7 ::
GnssImu(
    ImuValid: Valid,
    AccelerationX: 8.0 m/s^2,
    AccelerationY: -14.125 m/s^2,
    AccelerationZ: 60.25 m/s^2,
    AngularRateX: 63.75 deg/s,
    AngularRateY: 236.75 deg/s,
    AngularRateZ: 175.0 deg/s
)
  vcan0  009   [8]  81 9C C4 F4 7F AE 90 D7 ::
GnssImu(
    ImuValid: Valid,
    AccelerationX: 8.0 m/s^2,
    AccelerationY: -45.625 m/s^2,
    AccelerationZ: 52.75 m/s^2,
    AngularRateX: 63.75 deg/s,
    AngularRateY: 10.75 deg/s,
    AngularRateZ: 175.0 deg/s
)
  vcan0  009   [8]  81 BC CE FC 6F 71 10 E7 ::
GnssImu(
    ImuValid: Valid,
    AccelerationX: 8.0 m/s^2,
    AccelerationY: -5.125 m/s^2,
    AccelerationZ: 60.75 m/s^2,
    AngularRateX: -72.25 deg/s,
    AngularRateY: 7.0 deg/s,
    AngularRateZ: 206.0 deg/s
)
  vcan0  009   [8]  81 FC CC FC 6F 39 5A E7 ::
GnssImu(
    ImuValid: Valid,
    AccelerationX: 8.0 m/s^2,
    AccelerationY: -12.125 m/s^2,
    AccelerationZ: 60.75 m/s^2,
    AngularRateX: -72.25 deg/s,
    AngularRateY: 163.5 deg/s,
    AngularRateZ: 206.5 deg/s
)
  vcan0  009   [8]  81 FC 4A FC 6F 2E 10 E7 ::
GnssImu(
    ImuValid: Valid,
    AccelerationX: 8.0 m/s^2,
    AccelerationY: -20.125 m/s^2,
    AccelerationZ: 60.25 m/s^2,
    AngularRateX: 55.75 deg/s,
    AngularRateY: 2.75 deg/s,
    AngularRateZ: 206.0 deg/s
)
  vcan0  009   [8]  82 1C 4A FC 6F 03 14 F7 ::
GnssImu(
    ImuValid: Invalid,
    AccelerationX: 8.125 m/s^2,
    AccelerationY: -23.625 m/s^2,
    AccelerationZ: 60.25 m/s^2,
    AngularRateX: 183.75 deg/s,
    AngularRateY: 64.0 deg/s,
    AngularRateZ: 238.0 deg/s
)
  vcan0  009   [8]  82 1B CC FC 6E E8 18 F7 ::
GnssImu(
    ImuValid: Invalid,
    AccelerationX: -7.875 m/s^2,
    AccelerationY: -15.625 m/s^2,
    AccelerationZ: 60.75 m/s^2,
    AngularRateX: -200.75 deg/s,
    AngularRateY: 142.5 deg/s,
    AngularRateZ: 238.0 deg/s
)
  vcan0  009   [8]  82 1B CE F4 6E DC D8 F7 ::
GnssImu(
    ImuValid: Invalid,
    AccelerationX: -7.875 m/s^2,
    AccelerationY: -7.625 m/s^2,
    AccelerationZ: 52.75 m/s^2,
    AngularRateX: -200.75 deg/s,
    AngularRateY: 141.75 deg/s,
    AngularRateZ: 239.5 deg/s
)
  vcan0  009   [8]  81 FB C2 F4 7E E1 9B 08 ::
GnssImu(
    ImuValid: Valid,
    AccelerationX: -8.0 m/s^2,
    AccelerationY: -52.125 m/s^2,
    AccelerationZ: 52.75 m/s^2,
    AngularRateX: -64.75 deg/s,
    AngularRateY: 190.0 deg/s,
    AngularRateZ: -239.0 deg/s
)
  vcan0  009   [8]  81 FB 48 F4 7F 15 5D 08 ::
GnssImu(
    ImuValid: Valid,
    AccelerationX: -8.0 m/s^2,
    AccelerationY: -28.125 m/s^2,
    AccelerationZ: 52.25 m/s^2,
    AngularRateX: -64.25 deg/s,
    AngularRateY: 209.25 deg/s,
    AngularRateZ: -239.5 deg/s
)
  vcan0  009   [8]  81 DA 4E FC 7F 36 97 08 ::
GnssImu(
    ImuValid: Valid,
    AccelerationX: -24.0 m/s^2,
    AccelerationY: -4.625 m/s^2,
    AccelerationZ: 60.25 m/s^2,
    AngularRateX: 63.75 deg/s,
    AngularRateY: 115.25 deg/s,
    AngularRateZ: -239.0 deg/s
)
  vcan0  009   [8]  81 D9 C4 F4 8F 65 D9 08 ::
GnssImu(
    ImuValid: Valid,
    AccelerationX: -40.0 m/s^2,
    AccelerationY: -44.625 m/s^2,
    AccelerationZ: 52.75 m/s^2,
    AngularRateX: -56.25 deg/s,
    AngularRateY: 150.25 deg/s,
    AngularRateZ: -238.5 deg/s
)
  vcan0  009   [8]  81 D9 CC F4 8F 90 D5 08 ::
GnssImu(
    ImuValid: Valid,
    AccelerationX: -40.0 m/s^2,
    AccelerationY: -12.625 m/s^2,
    AccelerationZ: 52.75 m/s^2,
    AngularRateX: -184.25 deg/s,
    AngularRateY: 89.0 deg/s,
    AngularRateZ: -238.5 deg/s
)
  vcan0  009   [8]  81 D9 CE FC 8F 9E 5E F7 ::
GnssImu(
    ImuValid: Valid,
    AccelerationX: -40.0 m/s^2,
    AccelerationY: -4.625 m/s^2,
    AccelerationZ: 60.75 m/s^2,
    AngularRateX: 71.75 deg/s,
    AngularRateY: 233.75 deg/s,
    AngularRateZ: 238.5 deg/s
)
  vcan0  009   [8]  81 D9 4E F4 8F AC 56 F7 ::
GnssImu(
    ImuValid: Valid,
    AccelerationX: -40.0 m/s^2,
    AccelerationY: -4.625 m/s^2,
    AccelerationZ: 52.25 m/s^2,
    AngularRateX: -184.25 deg/s,
    AngularRateY: 106.75 deg/s,
    AngularRateZ: 238.5 deg/s
)
  vcan0  009   [8]  81 F8 C0 F4 9F BB 1E F7 ::
GnssImu(
    ImuValid: Valid,
    AccelerationX: -56.0 m/s^2,
    AccelerationY: -60.125 m/s^2,
    AccelerationZ: 52.75 m/s^2,
    AngularRateX: 207.75 deg/s,
    AngularRateY: 235.5 deg/s,
    AngularRateZ: 238.0 deg/s
)
  vcan0  009   [8]  82 18 C0 FC 9F BA D6 F7 ::
GnssImu(
    ImuValid: Invalid,
    AccelerationX: -55.875 m/s^2,
    AccelerationY: -63.625 m/s^2,
    AccelerationZ: 60.75 m/s^2,
    AngularRateX: 79.75 deg/s,
    AngularRateY: 107.5 deg/s,
    AngularRateZ: 239.5 deg/s
)
  vcan0  009   [8]  82 18 C0 FC 9F CB 12 F7 ::
GnssImu(
    ImuValid: Invalid,
    AccelerationX: -55.875 m/s^2,
    AccelerationY: -63.625 m/s^2,
    AccelerationZ: 60.75 m/s^2,
    AngularRateX: 207.75 deg/s,
    AngularRateY: 44.5 deg/s,
    AngularRateZ: 238.0 deg/s
)
  vcan0  009   [8]  82 18 C4 F4 9F DB 92 F7 ::
GnssImu(
    ImuValid: Invalid,
    AccelerationX: -55.875 m/s^2,
    AccelerationY: -47.625 m/s^2,
    AccelerationZ: 52.75 m/s^2,
    AngularRateX: 207.75 deg/s,
    AngularRateY: 45.5 deg/s,
    AngularRateZ: 239.0 deg/s
)
  vcan0  009   [8]  82 39 4A FC 9F EC DA F7 ::
GnssImu(
    ImuValid: Invalid,
    AccelerationX: -39.875 m/s^2,
    AccelerationY: -23.125 m/s^2,
    AccelerationZ: 60.25 m/s^2,
    AngularRateX: -176.25 deg/s,
    AngularRateY: 174.75 deg/s,
    AngularRateZ: 239.5 deg/s
)
  vcan0  009   [8]  82 18 CE FC 9F FD D4 F7 ::
GnssImu(
    ImuValid: Invalid,
    AccelerationX: -55.875 m/s^2,
    AccelerationY: -7.625 m/s^2,
    AccelerationZ: 60.75 m/s^2,
    AngularRateX: -48.25 deg/s,
    AngularRateY: 79.75 deg/s,
    AngularRateZ: 239.5 deg/s
)
  vcan0  009   [8]  82 18 C4 F4 AF ED D4 F7 ::
GnssImu(
    ImuValid: Invalid,
    AccelerationX: -55.875 m/s^2,
    AccelerationY: -47.625 m/s^2,
    AccelerationZ: 52.75 m/s^2,
    AngularRateX: -40.25 deg/s,
    AngularRateY: 78.75 deg/s,
    AngularRateZ: 239.5 deg/s
)
  vcan0  009   [8]  82 38 CA FC AF BC 94 F7 ::
GnssImu(
    ImuValid: Invalid,
    AccelerationX: -55.875 m/s^2,
    AccelerationY: -23.125 m/s^2,
    AccelerationZ: 60.75 m/s^2,
    AngularRateX: -168.25 deg/s,
    AngularRateY: 75.75 deg/s,
    AngularRateZ: 239.0 deg/s
)
  vcan0  009   [8]  82 38 CC F4 AF AA 92 F7 ::
GnssImu(
    ImuValid: Invalid,
    AccelerationX: -55.875 m/s^2,
    AccelerationY: -15.125 m/s^2,
    AccelerationZ: 52.75 m/s^2,
    AngularRateX: 87.75 deg/s,
    AngularRateY: 42.5 deg/s,
    AngularRateZ: 239.0 deg/s
)
  vcan0  009   [8]  82 38 40 FC BF 77 D0 F7 ::
GnssImu(
    ImuValid: Invalid,
    AccelerationX: -55.875 m/s^2,
    AccelerationY: -63.125 m/s^2,
    AccelerationZ: 60.25 m/s^2,
    AngularRateX: 223.75 deg/s,
    AngularRateY: 7.25 deg/s,
    AngularRateZ: 239.5 deg/s
)
  vcan0  009   [8]  82 38 C2 FC BF 44 92 F7 ::
GnssImu(
    ImuValid: Invalid,
    AccelerationX: -55.875 m/s^2,
    AccelerationY: -55.125 m/s^2,
    AccelerationZ: 60.75 m/s^2,
    AngularRateX: -160.25 deg/s,
    AngularRateY: 36.25 deg/s,
    AngularRateZ: 239.0 deg/s
)
  vcan0  009   [8]  82 59 42 FC BF 01 94 F7 ::
GnssImu(
    ImuValid: Invalid,
    AccelerationX: -39.875 m/s^2,
    AccelerationY: -54.625 m/s^2,
    AccelerationZ: 60.25 m/s^2,
    AngularRateX: -32.25 deg/s,
    AngularRateY: 64.0 deg/s,
    AngularRateZ: 239.0 deg/s
)
  vcan0  009   [8]  82 98 4C FC AE BF 54 E7 ::
GnssImu(
    ImuValid: Invalid,
    AccelerationX: -55.875 m/s^2,
    AccelerationY: -13.625 m/s^2,
    AccelerationZ: 60.25 m/s^2,
    AngularRateX: 215.25 deg/s,
    AngularRateY: 75.75 deg/s,
    AngularRateZ: 206.5 deg/s
)
  vcan0  009   [8]  82 B8 46 F4 AE 90 5E F7 ::
GnssImu(
    ImuValid: Invalid,
    AccelerationX: -55.875 m/s^2,
    AccelerationY: -37.125 m/s^2,
    AccelerationZ: 52.25 m/s^2,
    AngularRateX: -168.75 deg/s,
    AngularRateY: 233.0 deg/s,
    AngularRateZ: 238.5 deg/s
)
  vcan0  009   [8]  82 D7 42 FC AE 83 9E F7 ::
GnssImu(
    ImuValid: Invalid,
    AccelerationX: 56.125 m/s^2,
    AccelerationY: -52.75 m/s^2,
    AccelerationZ: 60.25 m/s^2,
    AngularRateX: 215.25 deg/s,
    AngularRateY: 232.0 deg/s,
    AngularRateZ: 239.0 deg/s
)
  vcan0  009   [8]  82 D6 CC F4 9E D8 9E F7 ::
GnssImu(
    ImuValid: Invalid,
    AccelerationX: 40.125 m/s^2,
    AccelerationY: -12.75 m/s^2,
    AccelerationZ: 52.75 m/s^2,
    AngularRateX: -176.75 deg/s,
    AngularRateY: 237.5 deg/s,
    AngularRateZ: 239.0 deg/s
)
  vcan0  009   [8]  82 76 C6 FC 9F E4 D5 07 ::
GnssImu(
    ImuValid: Invalid,
    AccelerationX: 40.125 m/s^2,
    AccelerationY: -38.25 m/s^2,
    AccelerationZ: 60.75 m/s^2,
    AngularRateX: -176.25 deg/s,
    AngularRateY: 94.25 deg/s,
    AngularRateZ: -240.5 deg/s
)
  vcan0  009   [8]  82 77 48 FC 90 AD 61 08 ::
GnssImu(
    ImuValid: Invalid,
    AccelerationX: 56.125 m/s^2,
    AccelerationY: -30.25 m/s^2,
    AccelerationZ: 60.25 m/s^2,
    AngularRateX: -55.75 deg/s,
    AngularRateY: -229.25 deg/s,
    AngularRateZ: -239.25 deg/s
)
  vcan0  009   [8]  82 37 C0 FC A1 77 29 18 ::
GnssImu(
    ImuValid: Invalid,
    AccelerationX: 56.125 m/s^2,
    AccelerationY: -63.25 m/s^2,
    AccelerationZ: 60.75 m/s^2,
    AngularRateX: 208.75 deg/s,
    AngularRateY: -104.75 deg/s,
    AngularRateZ: -207.75 deg/s
)
  vcan0  009   [8]  81 D8 CA FC A2 2E EF 18 ::
GnssImu(
    ImuValid: Valid,
    AccelerationX: -56.0 m/s^2,
    AccelerationY: -20.625 m/s^2,
    AccelerationZ: 60.75 m/s^2,
    AngularRateX: 81.25 deg/s,
    AngularRateY: -13.25 deg/s,
    AngularRateZ: -206.25 deg/s
)
  vcan0  009   [8]  81 7A 4A FC B2 93 63 28 ::
GnssImu(
    ImuValid: Valid,
    AccelerationX: -24.0 m/s^2,
    AccelerationY: -22.125 m/s^2,
    AccelerationZ: 60.25 m/s^2,
    AngularRateX: 217.25 deg/s,
    AngularRateY: -199.0 deg/s,
    AngularRateZ: -175.25 deg/s
)
  vcan0  009   [8]  81 3A C6 F4 C2 B2 69 28 ::
GnssImu(
    ImuValid: Valid,
    AccelerationX: -24.0 m/s^2,
    AccelerationY: -39.125 m/s^2,
    AccelerationZ: 52.75 m/s^2,
    AngularRateX: 97.25 deg/s,
    AngularRateY: -101.0 deg/s,
    AngularRateZ: -175.25 deg/s
)
  vcan0  009   [8]  81 3A 4A F4 C2 6B E3 18 ::
GnssImu(
    ImuValid: Valid,
    AccelerationX: -24.0 m/s^2,
    AccelerationY: -23.125 m/s^2,
    AccelerationZ: 52.25 m/s^2,
    AngularRateX: 225.25 deg/s,
    AngularRateY: -201.5 deg/s,
    AngularRateZ: -206.25 deg/s
)
  vcan0  009   [8]  81 38 C6 FC C1 A1 A3 18 ::
GnssImu(
    ImuValid: Valid,
    AccelerationX: -56.0 m/s^2,
    AccelerationY: -39.125 m/s^2,
    AccelerationZ: 60.75 m/s^2,
    AngularRateX: -31.25 deg/s,
    AngularRateY: -198.0 deg/s,
    AngularRateZ: -206.75 deg/s
)
  vcan0  009   [8]  81 38 40 FC C0 B6 6B 08 ::
GnssImu(
    ImuValid: Valid,
    AccelerationX: -56.0 m/s^2,
    AccelerationY: -63.125 m/s^2,
    AccelerationZ: 60.25 m/s^2,
    AngularRateX: 96.25 deg/s,
    AngularRateY: -68.75 deg/s,
    AngularRateZ: -239.25 deg/s
)
  vcan0  009   [8]  81 77 44 FC BF EB 1C F7 ::
GnssImu(
    ImuValid: Valid,
    AccelerationX: 56.0 m/s^2,
    AccelerationY: -46.25 m/s^2,
    AccelerationZ: 60.25 m/s^2,
    AngularRateX: 223.75 deg/s,
    AngularRateY: 206.5 deg/s,
    AngularRateZ: 238.0 deg/s
)
  vcan0  009   [8]  81 97 C6 F4 AF 84 16 F7 ::
GnssImu(
    ImuValid: Valid,
    AccelerationX: 56.0 m/s^2,
    AccelerationY: -37.75 m/s^2,
    AccelerationZ: 52.75 m/s^2,
    AngularRateX: -168.25 deg/s,
    AngularRateY: 104.25 deg/s,
    AngularRateZ: 238.0 deg/s
)
  vcan0  009   [8]  81 F8 4C FC 9F 81 D2 F7 ::
GnssImu(
    ImuValid: Valid,
    AccelerationX: -56.0 m/s^2,
    AccelerationY: -12.125 m/s^2,
    AccelerationZ: 60.25 m/s^2,
    AngularRateX: -48.25 deg/s,
    AngularRateY: 40.0 deg/s,
    AngularRateZ: 239.5 deg/s
)
  vcan0  009   [8]  81 F9 40 FC 9F D4 9A F7 ::
GnssImu(
    ImuValid: Valid,
    AccelerationX: -40.0 m/s^2,
    AccelerationY: -60.125 m/s^2,
    AccelerationZ: 60.25 m/s^2,
    AngularRateX: -176.25 deg/s,
    AngularRateY: 173.25 deg/s,
    AngularRateZ: 239.0 deg/s
)
  vcan0  009   [8]  81 FA C0 FC 90 4C 26 F7 ::
GnssImu(
    ImuValid: Valid,
    AccelerationX: -24.0 m/s^2,
    AccelerationY: -60.125 m/s^2,
    AccelerationZ: 60.75 m/s^2,
    AngularRateX: -183.75 deg/s,
    AngularRateY: -155.25 deg/s,
    AngularRateZ: 238.25 deg/s
)
  vcan0  009   [8]  81 FB 42 F4 90 D5 61 07 ::
GnssImu(
    ImuValid: Valid,
    AccelerationX: -8.0 m/s^2,
    AccelerationY: -52.125 m/s^2,
    AccelerationZ: 52.25 m/s^2,
    AngularRateX: -55.75 deg/s,
    AngularRateY: -226.75 deg/s,
    AngularRateZ: -241.25 deg/s
)
  vcan0  009   [8]  81 DC 44 FC 91 4E 6F 07 ::
GnssImu(
    ImuValid: Valid,
    AccelerationX: 8.0 m/s^2,
    AccelerationY: -44.625 m/s^2,
    AccelerationZ: 60.25 m/s^2,
    AngularRateX: 72.75 deg/s,
    AngularRateY: -11.25 deg/s,
    AngularRateZ: -241.25 deg/s
)
  vcan0  009   [8]  81 9C 4A FC 91 64 EF 17 ::
GnssImu(
    ImuValid: Valid,
    AccelerationX: 8.0 m/s^2,
    AccelerationY: -21.625 m/s^2,
    AccelerationZ: 60.25 m/s^2,
    AngularRateX: -183.25 deg/s,
    AngularRateY: -9.75 deg/s,
    AngularRateZ: -208.25 deg/s
)
  vcan0  009   [8]  81 7B CC F4 91 47 AB 17 ::
GnssImu(
    ImuValid: Valid,
    AccelerationX: -8.0 m/s^2,
    AccelerationY: -14.125 m/s^2,
    AccelerationZ: 52.75 m/s^2,
    AngularRateX: 200.75 deg/s,
    AngularRateY: -75.75 deg/s,
    AngularRateZ: -208.75 deg/s
)
  vcan0  009   [8]  81 5B C0 FC A0 D7 61 17 ::
GnssImu(
    ImuValid: Valid,
    AccelerationX: -8.0 m/s^2,
    AccelerationY: -62.625 m/s^2,
    AccelerationZ: 60.75 m/s^2,
    AngularRateX: 208.25 deg/s,
    AngularRateY: -226.75 deg/s,
    AngularRateZ: -209.25 deg/s
)
  vcan0  009   [8]  81 7B 4C FC 9F F1 15 17 ::
GnssImu(
    ImuValid: Valid,
    AccelerationX: -8.0 m/s^2,
    AccelerationY: -14.125 m/s^2,
    AccelerationZ: 60.25 m/s^2,
    AngularRateX: -48.25 deg/s,
    AngularRateY: 95.0 deg/s,
    AngularRateZ: -210.0 deg/s
)
  vcan0  009   [8]  81 7B CA FC 9F AC 15 07 ::
GnssImu(
    ImuValid: Valid,
    AccelerationX: -8.0 m/s^2,
    AccelerationY: -22.125 m/s^2,
    AccelerationZ: 60.75 m/s^2,
    AngularRateX: -176.25 deg/s,
    AngularRateY: 90.75 deg/s,
    AngularRateZ: -242.0 deg/s
)
  vcan0  009   [8]  81 7B C6 FC 9F 97 57 07 ::
GnssImu(
    ImuValid: Valid,
    AccelerationX: -8.0 m/s^2,
    AccelerationY: -38.125 m/s^2,
    AccelerationZ: 60.75 m/s^2,
    AngularRateX: 207.75 deg/s,
    AngularRateY: 121.25 deg/s,
    AngularRateZ: -241.5 deg/s
)
  vcan0  009   [8]  81 7C 40 FC 9F B3 11 07 ::
GnssImu(
    ImuValid: Valid,
    AccelerationX: 8.0 m/s^2,
    AccelerationY: -62.125 m/s^2,
    AccelerationZ: 60.25 m/s^2,
    AngularRateX: 207.75 deg/s,
    AngularRateY: 27.0 deg/s,
    AngularRateZ: -242.0 deg/s
)
  vcan0  009   [8]  81 5C 4A F4 8F E0 17 07 ::
GnssImu(
    ImuValid: Valid,
    AccelerationX: 8.0 m/s^2,
    AccelerationY: -22.625 m/s^2,
    AccelerationZ: 52.25 m/s^2,
    AngularRateX: -184.25 deg/s,
    AngularRateY: 126.0 deg/s,
    AngularRateZ: -242.0 deg/s
)
  vcan0  009   [8]  81 5B C6 FC 80 1E E6 F7 ::
GnssImu(
    ImuValid: Valid,
    AccelerationX: -8.0 m/s^2,
    AccelerationY: -38.625 m/s^2,
    AccelerationZ: 60.75 m/s^2,
    AngularRateX: 64.25 deg/s,
    AngularRateY: -158.25 deg/s,
    AngularRateZ: 239.75 deg/s
)
  vcan0  009   [8]  81 5B 44 F4 80 5E A6 F7 ::
GnssImu(
    ImuValid: Valid,
    AccelerationX: -8.0 m/s^2,
    AccelerationY: -46.625 m/s^2,
    AccelerationZ: 52.25 m/s^2,
    AngularRateX: 64.25 deg/s,
    AngularRateY: -154.25 deg/s,
    AngularRateZ: 239.25 deg/s
)
  vcan0  009   [8]  81 5A C4 F4 80 7E A0 F7 ::
GnssImu(
    ImuValid: Valid,
    AccelerationX: -24.0 m/s^2,
    AccelerationY: -46.625 m/s^2,
    AccelerationZ: 52.75 m/s^2,
    AngularRateX: 64.25 deg/s,
    AngularRateY: -248.25 deg/s,
    AngularRateZ: 239.25 deg/s
)
  vcan0  009   [8]  81 5A 44 FC 80 8D E0 F7 ::
GnssImu(
    ImuValid: Valid,
    AccelerationX: -24.0 m/s^2,
    AccelerationY: -46.625 m/s^2,
    AccelerationZ: 60.25 m/s^2,
    AngularRateX: -63.75 deg/s,
    AngularRateY: -247.25 deg/s,
    AngularRateZ: 239.75 deg/s
)
  vcan0  009   [8]  81 5A 44 F4 80 8B E8 F7 ::
GnssImu(
    ImuValid: Valid,
    AccelerationX: -24.0 m/s^2,
    AccelerationY: -46.625 m/s^2,
    AccelerationZ: 52.25 m/s^2,
    AngularRateX: 192.25 deg/s,
    AngularRateY: -119.5 deg/s,
    AngularRateZ: 239.75 deg/s
)
  vcan0  009   [8]  81 5A 42 FC 80 48 AC F7 ::
GnssImu(
    ImuValid: Valid,
    AccelerationX: -24.0 m/s^2,
    AccelerationY: -54.625 m/s^2,
    AccelerationZ: 60.25 m/s^2,
    AngularRateX: -191.75 deg/s,
    AngularRateY: -59.5 deg/s,
    AngularRateZ: 239.25 deg/s
)
  vcan0  009   [8]  81 7A 42 FC 80 05 62 F7 ::
GnssImu(
    ImuValid: Valid,
    AccelerationX: -24.0 m/s^2,
    AccelerationY: -54.125 m/s^2,
    AccelerationZ: 60.25 m/s^2,
    AngularRateX: -63.75 deg/s,
    AngularRateY: -223.75 deg/s,
    AngularRateZ: 238.75 deg/s
)
  vcan0  009   [8]  81 9A C0 FC 8F E2 DC F7 ::
GnssImu(
    ImuValid: Valid,
    AccelerationX: -24.0 m/s^2,
    AccelerationY: -61.625 m/s^2,
    AccelerationZ: 60.75 m/s^2,
    AngularRateX: 71.75 deg/s,
    AngularRateY: 206.0 deg/s,
    AngularRateZ: 239.5 deg/s
)
  vcan0  009   [8]  81 9B 4E FC 7F D1 50 F7 ::
GnssImu(
    ImuValid: Valid,
    AccelerationX: -8.0 m/s^2,
    AccelerationY: -5.625 m/s^2,
    AccelerationZ: 60.25 m/s^2,
    AngularRateX: -64.25 deg/s,
    AngularRateY: 13.0 deg/s,
    AngularRateZ: 238.5 deg/s
)
  vcan0  009   [8]  81 9A CC FC 7F D0 DC F7 ::
GnssImu(
    ImuValid: Valid,
    AccelerationX: -24.0 m/s^2,
    AccelerationY: -13.625 m/s^2,
    AccelerationZ: 60.75 m/s^2,
    AngularRateX: -192.25 deg/s,
    AngularRateY: 205.0 deg/s,
    AngularRateZ: 239.5 deg/s
)
  vcan0  009   [8]  81 9A CA FC 7F D1 1E F7 ::
GnssImu(
    ImuValid: Valid,
    AccelerationX: -24.0 m/s^2,
    AccelerationY: -21.625 m/s^2,
    AccelerationZ: 60.75 m/s^2,
    AngularRateX: -64.25 deg/s,
    AngularRateY: 237.0 deg/s,
    AngularRateZ: 238.0 deg/s
)
  vcan0  009   [8]  81 9A 4A FC 7F E1 54 F7 ::
GnssImu(
    ImuValid: Valid,
    AccelerationX: -24.0 m/s^2,
    AccelerationY: -21.625 m/s^2,
    AccelerationZ: 60.25 m/s^2,
    AngularRateX: -64.25 deg/s,
    AngularRateY: 78.0 deg/s,
    AngularRateZ: 238.5 deg/s
)
  vcan0  009   [8]  81 99 CC F4 7F F2 58 F7 ::
GnssImu(
    ImuValid: Valid,
    AccelerationX: -40.0 m/s^2,
    AccelerationY: -13.625 m/s^2,
    AccelerationZ: 52.75 m/s^2,
    AngularRateX: 63.75 deg/s,
    AngularRateY: 143.0 deg/s,
    AngularRateZ: 238.5 deg/s
)
  vcan0  009   [8]  81 99 C0 F4 8F D2 9A F7 ::
GnssImu(
    ImuValid: Valid,
    AccelerationX: -40.0 m/s^2,
    AccelerationY: -61.625 m/s^2,
    AccelerationZ: 52.75 m/s^2,
    AngularRateX: 71.75 deg/s,
    AngularRateY: 173.0 deg/s,
    AngularRateZ: 239.0 deg/s
)
  vcan0  009   [8]  81 99 C4 F4 8F A2 94 F7 ::
GnssImu(
    ImuValid: Valid,
    AccelerationX: -40.0 m/s^2,
    AccelerationY: -45.625 m/s^2,
    AccelerationZ: 52.75 m/s^2,
    AngularRateX: 71.75 deg/s,
    AngularRateY: 74.0 deg/s,
    AngularRateZ: 239.0 deg/s
)
  vcan0  009   [8]  81 B9 C6 FC 8F 83 1A F7 ::
GnssImu(
    ImuValid: Valid,
    AccelerationX: -40.0 m/s^2,
    AccelerationY: -37.125 m/s^2,
    AccelerationZ: 60.75 m/s^2,
    AngularRateX: 199.75 deg/s,
    AngularRateY: 168.0 deg/s,
    AngularRateZ: 238.0 deg/s
)
  vcan0  009   [8]  81 9A 4C FC 8F 53 5C F7 ::
GnssImu(
    ImuValid: Valid,
    AccelerationX: -24.0 m/s^2,
    AccelerationY: -13.625 m/s^2,
    AccelerationZ: 60.25 m/s^2,
    AngularRateX: 199.75 deg/s,
    AngularRateY: 197.0 deg/s,
    AngularRateZ: 238.5 deg/s
)
  vcan0  009   [8]  81 9A 42 FC 9F 33 92 F8 ::
GnssImu(
    ImuValid: Valid,
    AccelerationX: -24.0 m/s^2,
    AccelerationY: -53.625 m/s^2,
    AccelerationZ: 60.25 m/s^2,
    AngularRateX: 207.75 deg/s,
    AngularRateY: 35.0 deg/s,
    AngularRateZ: 241.0 deg/s
)
  vcan0  009   [8]  81 99 C6 F4 9F 32 DA F8 ::
GnssImu(
    ImuValid: Valid,
    AccelerationX: -40.0 m/s^2,
    AccelerationY: -37.625 m/s^2,
    AccelerationZ: 52.75 m/s^2,
    AngularRateX: 79.75 deg/s,
    AngularRateY: 163.0 deg/s,
    AngularRateZ: 241.5 deg/s
)
  vcan0  009   [8]  81 99 C8 F4 9F 11 92 F8 ::
GnssImu(
    ImuValid: Valid,
    AccelerationX: -40.0 m/s^2,
    AccelerationY: -29.625 m/s^2,
    AccelerationZ: 52.75 m/s^2,
    AngularRateX: -48.25 deg/s,
    AngularRateY: 33.0 deg/s,
    AngularRateZ: 241.0 deg/s
)
  vcan0  009   [8]  81 99 CC F4 9E F0 1C F8 ::
GnssImu(
    ImuValid: Valid,
    AccelerationX: -40.0 m/s^2,
    AccelerationY: -13.625 m/s^2,
    AccelerationZ: 52.75 m/s^2,
    AngularRateX: -176.75 deg/s,
    AngularRateY: 207.0 deg/s,
    AngularRateZ: 240.0 deg/s
)
  vcan0  009   [8]  81 B9 4C FC 9E DE D0 E8 ::
GnssImu(
    ImuValid: Valid,
    AccelerationX: -40.0 m/s^2,
    AccelerationY: -13.125 m/s^2,
    AccelerationZ: 60.25 m/s^2,
    AngularRateX: 79.25 deg/s,
    AngularRateY: 13.75 deg/s,
    AngularRateZ: 209.5 deg/s
)
  vcan0  009   [8]  81 B9 4E FC 9E BE 52 E8 ::
GnssImu(
    ImuValid: Valid,
    AccelerationX: -40.0 m/s^2,
    AccelerationY: -5.125 m/s^2,
    AccelerationZ: 60.25 m/s^2,
    AngularRateX: 79.25 deg/s,
    AngularRateY: 43.75 deg/s,
    AngularRateZ: 208.5 deg/s
)
  vcan0  009   [8]  81 B9 40 FC AE AE D2 E8 ::
GnssImu(
    ImuValid: Valid,
    AccelerationX: -40.0 m/s^2,
    AccelerationY: -61.125 m/s^2,
    AccelerationZ: 60.25 m/s^2,
    AngularRateX: 87.25 deg/s,
    AngularRateY: 42.75 deg/s,
    AngularRateZ: 209.5 deg/s
)
  vcan0  009   [8]  81 B8 C8 FC AE BF 9E E8 ::
GnssImu(
    ImuValid: Valid,
    AccelerationX: -56.0 m/s^2,
    AccelerationY: -29.125 m/s^2,
    AccelerationZ: 60.75 m/s^2,
    AngularRateX: 215.25 deg/s,
    AngularRateY: 235.75 deg/s,
    AngularRateZ: 209.0 deg/s
)
  vcan0  009   [8]  81 D8 CC F4 AE CE DC E8 ::
GnssImu(
    ImuValid: Valid,
    AccelerationX: -56.0 m/s^2,
    AccelerationY: -12.625 m/s^2,
    AccelerationZ: 52.75 m/s^2,
    AngularRateX: 87.25 deg/s,
    AngularRateY: 204.75 deg/s,
    AngularRateZ: 209.5 deg/s
)
  vcan0  009   [8]  81 D8 C0 F4 BE BD 5A E8 ::
GnssImu(
    ImuValid: Valid,
    AccelerationX: -56.0 m/s^2,
    AccelerationY: -60.625 m/s^2,
    AccelerationZ: 52.75 m/s^2,
    AngularRateX: -32.75 deg/s,
    AngularRateY: 171.75 deg/s,
    AngularRateZ: 208.5 deg/s
)
  vcan0  009   [8]  81 F8 C2 F4 BE 9B 96 E8 ::
GnssImu(
    ImuValid: Valid,
    AccelerationX: -56.0 m/s^2,
    AccelerationY: -52.125 m/s^2,
    AccelerationZ: 52.75 m/s^2,
    AngularRateX: 223.25 deg/s,
    AngularRateY: 105.5 deg/s,
    AngularRateZ: 209.0 deg/s
)
  vcan0  009   [8]  82 18 C2 FC BE 6A 1C E8 ::
GnssImu(
    ImuValid: Invalid,
    AccelerationX: -55.875 m/s^2,
    AccelerationY: -55.625 m/s^2,
    AccelerationZ: 60.75 m/s^2,
    AngularRateX: 95.25 deg/s,
    AngularRateY: 198.5 deg/s,
    AngularRateZ: 208.0 deg/s
)
  vcan0  009   [8]  82 59 40 F4 BE 39 50 E8 ::
GnssImu(
    ImuValid: Invalid,
    AccelerationX: -39.875 m/s^2,
    AccelerationY: -62.625 m/s^2,
    AccelerationZ: 52.25 m/s^2,
    AngularRateX: -32.75 deg/s,
    AngularRateY: 3.5 deg/s,
    AngularRateZ: 208.5 deg/s
)
  vcan0  009   [8]  82 99 4C F4 AE 0A D6 E7 ::
GnssImu(
    ImuValid: Invalid,
    AccelerationX: -39.875 m/s^2,
    AccelerationY: -13.625 m/s^2,
    AccelerationZ: 52.25 m/s^2,
    AngularRateX: 87.25 deg/s,
    AngularRateY: 96.5 deg/s,
    AngularRateZ: 207.5 deg/s
)
  vcan0  009   [8]  82 B9 4A FC AD EE 14 E7 ::
GnssImu(
    ImuValid: Invalid,
    AccelerationX: -39.875 m/s^2,
    AccelerationY: -21.125 m/s^2,
    AccelerationZ: 60.25 m/s^2,
    AngularRateX: 86.75 deg/s,
    AngularRateY: 78.75 deg/s,
    AngularRateZ: 206.0 deg/s
)
  vcan0  009   [8]  82 B9 CA F4 AD F3 1E F7 ::
GnssImu(
    ImuValid: Invalid,
    AccelerationX: -39.875 m/s^2,
    AccelerationY: -21.125 m/s^2,
    AccelerationZ: 52.75 m/s^2,
    AngularRateX: 214.75 deg/s,
    AngularRateY: 239.0 deg/s,
    AngularRateZ: 238.0 deg/s
)
  vcan0  009   [8]  82 BA 4C FC AE 39 98 F8 ::
GnssImu(
    ImuValid: Invalid,
    AccelerationX: -23.875 m/s^2,
    AccelerationY: -13.125 m/s^2,
    AccelerationZ: 60.25 m/s^2,
    AngularRateX: -40.75 deg/s,
    AngularRateY: 131.5 deg/s,
    AngularRateZ: 241.0 deg/s
)
  vcan0  009   [8]  82 9A C2 F4 BE C1 91 08 ::
GnssImu(
    ImuValid: Invalid,
    AccelerationX: -23.875 m/s^2,
    AccelerationY: -53.625 m/s^2,
    AccelerationZ: 52.75 m/s^2,
    AngularRateX: -32.75 deg/s,
    AngularRateY: 28.0 deg/s,
    AngularRateZ: -239.0 deg/s
)
  vcan0  009   [8]  82 9A CA F4 BF 48 DD 08 ::
GnssImu(
    ImuValid: Invalid,
    AccelerationX: -23.875 m/s^2,
    AccelerationY: -21.625 m/s^2,
    AccelerationZ: 52.75 m/s^2,
    AngularRateX: -160.25 deg/s,
    AngularRateY: 212.5 deg/s,
    AngularRateZ: -238.5 deg/s
)
  vcan0  009   [8]  82 9A 42 F4 CF AE 1B 08 ::
GnssImu(
    ImuValid: Invalid,
    AccelerationX: -23.875 m/s^2,
    AccelerationY: -53.625 m/s^2,
    AccelerationZ: 52.25 m/s^2,
    AngularRateX: 103.75 deg/s,
    AngularRateY: 186.75 deg/s,
    AngularRateZ: -240.0 deg/s
)
  vcan0  009   [8]  82 5A 46 F4 CF BF 19 08 ::
GnssImu(
    ImuValid: Invalid,
    AccelerationX: -23.875 m/s^2,
    AccelerationY: -38.625 m/s^2,
    AccelerationZ: 52.25 m/s^2,
    AngularRateX: 231.75 deg/s,
    AngularRateY: 155.75 deg/s,
    AngularRateZ: -240.0 deg/s
)
  vcan0  009   [8]  82 3A C8 F4 CF 7C 91 08 ::
GnssImu(
    ImuValid: Invalid,
    AccelerationX: -23.875 m/s^2,
    AccelerationY: -31.125 m/s^2,
    AccelerationZ: 52.75 m/s^2,
    AngularRateX: -152.25 deg/s,
    AngularRateY: 23.75 deg/s,
    AngularRateZ: -239.0 deg/s
)
  vcan0  009   [8]  82 3B 48 F4 CE F7 53 08 ::
GnssImu(
    ImuValid: Invalid,
    AccelerationX: -7.875 m/s^2,
    AccelerationY: -31.125 m/s^2,
    AccelerationZ: 52.25 m/s^2,
    AngularRateX: 231.25 deg/s,
    AngularRateY: 63.25 deg/s,
    AngularRateZ: -239.5 deg/s
)
  vcan0  009   [8]  82 3B C4 FC CE 50 D7 08 ::
GnssImu(
    ImuValid: Invalid,
    AccelerationX: -7.875 m/s^2,
    AccelerationY: -47.125 m/s^2,
    AccelerationZ: 60.75 m/s^2,
    AngularRateX: -152.75 deg/s,
    AngularRateY: 117.0 deg/s,
    AngularRateZ: -238.5 deg/s
)
  vcan0  009   [8]  82 5B CA FC BD 99 DE F8 ::
GnssImu(
    ImuValid: Invalid,
    AccelerationX: -7.875 m/s^2,
    AccelerationY: -22.625 m/s^2,
    AccelerationZ: 60.75 m/s^2,
    AngularRateX: -33.25 deg/s,
    AngularRateY: 233.5 deg/s,
    AngularRateZ: 241.5 deg/s
)
  vcan0  009   [8]  82 7B C0 FC BC C4 5E F8 ::
GnssImu(
    ImuValid: Invalid,
    AccelerationX: -7.875 m/s^2,
    AccelerationY: -62.125 m/s^2,
    AccelerationZ: 60.75 m/s^2,
    AngularRateX: -161.75 deg/s,
    AngularRateY: 236.25 deg/s,
    AngularRateZ: 240.5 deg/s
)
  vcan0  009   [8]  82 9B C4 FC AC 2F 18 E8 ::
GnssImu(
    ImuValid: Invalid,
    AccelerationX: -7.875 m/s^2,
    AccelerationY: -45.625 m/s^2,
    AccelerationZ: 60.75 m/s^2,
    AngularRateX: 214.25 deg/s,
    AngularRateY: 130.75 deg/s,
    AngularRateZ: 208.0 deg/s
)
  vcan0  009   [8]  82 9B 48 F4 9B CB 1A E8 ::
GnssImu(
    ImuValid: Invalid,
    AccelerationX: -7.875 m/s^2,
    AccelerationY: -29.625 m/s^2,
    AccelerationZ: 52.25 m/s^2,
    AngularRateX: 205.75 deg/s,
    AngularRateY: 172.5 deg/s,
    AngularRateZ: 208.0 deg/s
)
  vcan0  009   [8]  82 9A CE FC 8B 98 5C E8 ::
GnssImu(
    ImuValid: Invalid,
    AccelerationX: -23.875 m/s^2,
    AccelerationY: -5.625 m/s^2,
    AccelerationZ: 60.75 m/s^2,
    AngularRateX: -186.25 deg/s,
    AngularRateY: 201.5 deg/s,
    AngularRateZ: 208.5 deg/s
)
  vcan0  010   [8]  15 30 00 00 00 00 00 00 :: Unknown frame id 16 (0x10)
  vcan0  002   [8]  60 33 F4 E2 BF 32 A0 00 :: Wrong data size: 8 instead of 6 bytes
  vcan0  003   [8]  8A 53 CA 9C ED 7C 89 E0 ::
GnssPosition(
    PositionValid: Invalid,
    Latitude: 151.510853 deg,
    Longitude: -107.916692 deg,
    PositionAccuracy: 56 m
)
  vcan0  004   [8]  47 FE 32 90 00 00 00 00 :: Wrong data size: 8 instead of 4 bytes
  vcan0  005   [8]  81 10 E9 9D 2F 46 35 64 ::
GnssAttitude(
    AttitudeValid: Valid,
    Roll: 31.200000000000017 deg,
    RollAccuracy: 32.800000000000004 deg,
    Pitch: 280.3 deg,
    PitchAccuracy: 39.5 deg,
    Heading: 170.4 deg,
    HeadingAccuracy: 20.0 deg
)
  vcan0  006   [8]  87 F0 20 02 00 0B 40 00 ::
GnssOdo(
    DistanceValid: Valid,
    DistanceTrip: 1079363 m,
    DistanceAccuracy: 393220 m,
    DistanceTotal: 4098 km
)
  vcan0  007   [8]  5D B0 A8 02 10 00 00 00 :: Wrong data size: 8 instead of 5 bytes
  vcan0  008   [8]  20 10 00 00 00 00 00 00 :: Wrong data size: 8 instead of 2 bytes
  vcan0  009   [8]  82 BA C4 F4 8B C7 D2 E8 ::
GnssImu(
    ImuValid: Invalid,
    AccelerationX: -23.875 m/s^2,
    AccelerationY: -45.125 m/s^2,
    AccelerationZ: 52.75 m/s^2,
    AngularRateX: 197.75 deg/s,
    AngularRateY: 44.25 deg/s,
    AngularRateZ: 209.5 deg/s
)
  vcan0  009   [8]  82 BA 4E FC 7C 2A 1E E7 ::
GnssImu(
    ImuValid: Invalid,
    AccelerationX: -23.875 m/s^2,
    AccelerationY: -5.125 m/s^2,
    AccelerationZ: 60.25 m/s^2,
    AngularRateX: 62.25 deg/s,
    AngularRateY: 226.5 deg/s,
    AngularRateZ: 206.0 deg/s
)
  vcan0  009   [8]  82 9A CA F4 7C DE 94 E8 ::
GnssImu(
    ImuValid: Invalid,
    AccelerationX: -23.875 m/s^2,
    AccelerationY: -21.625 m/s^2,
    AccelerationZ: 52.75 m/s^2,
    AngularRateX: 62.25 deg/s,
    AngularRateY: 77.75 deg/s,
    AngularRateZ: 209.0 deg/s
)
  vcan0  009   [8]  82 5A C8 FC 7D A3 D6 F8 ::
GnssImu(
    ImuValid: Invalid,
    AccelerationX: -23.875 m/s^2,
    AccelerationY: -30.625 m/s^2,
    AccelerationZ: 60.75 m/s^2,
    AngularRateX: 190.75 deg/s,
    AngularRateY: 106.0 deg/s,
    AngularRateZ: 241.5 deg/s
)
  vcan0  009   [8]  82 3A CA F4 7E 9A 12 F8 ::
GnssImu(
    ImuValid: Invalid,
    AccelerationX: -23.875 m/s^2,
    AccelerationY: -23.125 m/s^2,
    AccelerationZ: 52.75 m/s^2,
    AngularRateX: 63.25 deg/s,
    AngularRateY: 41.5 deg/s,
    AngularRateZ: 240.0 deg/s
)
  vcan0  009   [8]  82 3A CE F4 7F 80 93 08 ::
GnssImu(
    ImuValid: Invalid,
    AccelerationX: -23.875 m/s^2,
    AccelerationY: -7.125 m/s^2,
    AccelerationZ: 52.75 m/s^2,
    AngularRateX: -192.25 deg/s,
    AngularRateY: 56.0 deg/s,
    AngularRateZ: -239.0 deg/s
)
  vcan0  009   [8]  82 3A C4 FC 80 56 AD 08 ::
GnssImu(
    ImuValid: Invalid,
    AccelerationX: -23.875 m/s^2,
    AccelerationY: -47.125 m/s^2,
    AccelerationZ: 60.75 m/s^2,
    AngularRateX: 64.25 deg/s,
    AngularRateY: -42.75 deg/s,
    AngularRateZ: -238.75 deg/s
)
  vcan0  009   [8]  82 3C 4E FC 81 8C AB 08 ::
GnssImu(
    ImuValid: Invalid,
    AccelerationX: 8.125 m/s^2,
    AccelerationY: -7.125 m/s^2,
    AccelerationZ: 60.25 m/s^2,
    AngularRateX: -191.25 deg/s,
    AngularRateY: -71.25 deg/s,
    AngularRateZ: -238.75 deg/s
)
  vcan0  009   [8]  82 1C 44 FC 91 EC 6B 08 ::
GnssImu(
    ImuValid: Invalid,
    AccelerationX: 8.125 m/s^2,
    AccelerationY: -47.625 m/s^2,
    AccelerationZ: 60.25 m/s^2,
    AngularRateX: -183.25 deg/s,
    AngularRateY: -65.25 deg/s,
    AngularRateZ: -239.25 deg/s
)
  vcan0  009   [8]  82 1C 46 F4 92 29 E1 08 ::
GnssImu(
    ImuValid: Invalid,
    AccelerationX: 8.125 m/s^2,
    AccelerationY: -39.625 m/s^2,
    AccelerationZ: 52.25 m/s^2,
    AngularRateX: -54.75 deg/s,
    AngularRateY: -237.5 deg/s,
    AngularRateZ: -238.25 deg/s
)
  vcan0  009   [8]  82 1C 46 FC 92 05 E7 08 ::
GnssImu(
    ImuValid: Invalid,
    AccelerationX: 8.125 m/s^2,
    AccelerationY: -39.625 m/s^2,
    AccelerationZ: 60.25 m/s^2,
    AngularRateX: -54.75 deg/s,
    AngularRateY: -143.75 deg/s,
    AngularRateZ: -238.25 deg/s
)
  vcan0  009   [8]  82 1C 44 FC 91 91 2B 08 ::
GnssImu(
    ImuValid: Invalid,
    AccelerationX: 8.125 m/s^2,
    AccelerationY: -47.625 m/s^2,
    AccelerationZ: 60.25 m/s^2,
    AngularRateX: -55.25 deg/s,
    AngularRateY: -71.0 deg/s,
    AngularRateZ: -239.75 deg/s
)
  vcan0  009   [8]  82 1B C2 F4 91 0C 2A F8 ::
GnssImu(
    ImuValid: Invalid,
    AccelerationX: -7.875 m/s^2,
    AccelerationY: -55.625 m/s^2,
    AccelerationZ: 52.75 m/s^2,
    AngularRateX: -183.25 deg/s,
    AngularRateY: -95.25 deg/s,
    AngularRateZ: 240.25 deg/s
)
  vcan0  009   [8]  82 3B CE FC 80 57 64 F8 ::
GnssImu(
    ImuValid: Invalid,
    AccelerationX: -7.875 m/s^2,
    AccelerationY: -7.125 m/s^2,
    AccelerationZ: 60.75 m/s^2,
    AngularRateX: 192.25 deg/s,
    AngularRateY: -186.75 deg/s,
    AngularRateZ: 240.75 deg/s
)
  vcan0  009   [8]  82 5B 48 F4 8F A3 DA F8 ::
GnssImu(
    ImuValid: Invalid,
    AccelerationX: -7.875 m/s^2,
    AccelerationY: -30.625 m/s^2,
    AccelerationZ: 52.25 m/s^2,
    AngularRateX: 199.75 deg/s,
    AngularRateY: 170.0 deg/s,
    AngularRateZ: 241.5 deg/s
)
  vcan0  009   [8]  82 7A C2 F4 8E F1 18 F8 ::
GnssImu(
    ImuValid: Invalid,
    AccelerationX: -23.875 m/s^2,
    AccelerationY: -54.125 m/s^2,
    AccelerationZ: 52.75 m/s^2,
    AngularRateX: -56.75 deg/s,
    AngularRateY: 143.0 deg/s,
    AngularRateZ: 240.0 deg/s
)
  vcan0  009   [8]  82 99 C6 F4 7D DE D6 E8 ::
GnssImu(
    ImuValid: Invalid,
    AccelerationX: -39.875 m/s^2,
    AccelerationY: -37.625 m/s^2,
    AccelerationZ: 52.75 m/s^2,
    AngularRateX: 62.75 deg/s,
    AngularRateY: 109.75 deg/s,
    AngularRateZ: 209.5 deg/s
)
  vcan0  009   [8]  82 B9 42 FC 7D 5E DE E8 ::
GnssImu(
    ImuValid: Invalid,
    AccelerationX: -39.875 m/s^2,
    AccelerationY: -53.125 m/s^2,
    AccelerationZ: 60.25 m/s^2,
    AngularRateX: 62.75 deg/s,
    AngularRateY: 229.75 deg/s,
    AngularRateZ: 209.5 deg/s
)
  vcan0  009   [8]  82 99 40 F4 7C FF DC E8 ::
GnssImu(
    ImuValid: Invalid,
    AccelerationX: -39.875 m/s^2,
    AccelerationY: -61.625 m/s^2,
    AccelerationZ: 52.25 m/s^2,
    AngularRateX: 190.25 deg/s,
    AngularRateY: 207.75 deg/s,
    AngularRateZ: 209.5 deg/s
)
  vcan0  009   [8]  82 99 40 F4 7C D2 92 F8 ::
GnssImu(
    ImuValid: Invalid,
    AccelerationX: -39.875 m/s^2,
    AccelerationY: -61.625 m/s^2,
    AccelerationZ: 52.25 m/s^2,
    AngularRateX: 62.25 deg/s,
    AngularRateY: 45.0 deg/s,
    AngularRateZ: 241.0 deg/s
)
  vcan0  009   [8]  82 B9 44 FC 7D 17 96 F8 ::
GnssImu(
    ImuValid: Invalid,
    AccelerationX: -39.875 m/s^2,
    AccelerationY: -45.125 m/s^2,
    AccelerationZ: 60.25 m/s^2,
    AngularRateX: 190.75 deg/s,
    AngularRateY: 97.25 deg/s,
    AngularRateZ: 241.0 deg/s
)
  vcan0  009   [8]  82 B8 4A F4 7D 9B 56 F8 ::
GnssImu(
    ImuValid: Invalid,
    AccelerationX: -55.875 m/s^2,
    AccelerationY: -21.125 m/s^2,
    AccelerationZ: 52.25 m/s^2,
    AngularRateX: 190.75 deg/s,
    AngularRateY: 105.5 deg/s,
    AngularRateZ: 240.5 deg/s
)
  vcan0  009   [8]  82 B7 40 F4 8D DC 56 F8 ::
GnssImu(
    ImuValid: Invalid,
    AccelerationX: 56.125 m/s^2,
    AccelerationY: -61.25 m/s^2,
    AccelerationZ: 52.25 m/s^2,
    AngularRateX: -185.25 deg/s,
    AngularRateY: 109.75 deg/s,
    AngularRateZ: 240.5 deg/s
)
  vcan0  009   [8]  82 96 46 F4 8D AA 10 F8 ::
GnssImu(
    ImuValid: Invalid,
    AccelerationX: 40.125 m/s^2,
    AccelerationY: -37.75 m/s^2,
    AccelerationZ: 52.25 m/s^2,
    AngularRateX: 70.75 deg/s,
    AngularRateY: 10.5 deg/s,
    AngularRateZ: 240.0 deg/s
)
  vcan0  009   [8]  82 95 CA FC 8C F5 16 F8 ::
GnssImu(
    ImuValid: Invalid,
    AccelerationX: 24.125 m/s^2,
    AccelerationY: -21.75 m/s^2,
    AccelerationZ: 60.75 m/s^2,
    AngularRateX: -57.75 deg/s,
    AngularRateY: 111.25 deg/s,
    AngularRateZ: 240.0 deg/s
)
  vcan0  009   [8]  82 95 4A FC 8C 2E 58 E8 ::
GnssImu(
    ImuValid: Invalid,
    AccelerationX: 24.125 m/s^2,
    AccelerationY: -21.75 m/s^2,
    AccelerationZ: 60.25 m/s^2,
    AngularRateX: 70.25 deg/s,
    AngularRateY: 130.75 deg/s,
    AngularRateZ: 208.5 deg/s
)
  vcan0  009   [8]  82 B5 C6 FC 8B 67 D4 E8 ::
GnssImu(
    ImuValid: Invalid,
    AccelerationX: 24.125 m/s^2,
    AccelerationY: -37.25 m/s^2,
    AccelerationZ: 60.75 m/s^2,
    AngularRateX: 197.75 deg/s,
    AngularRateY: 70.25 deg/s,
    AngularRateZ: 209.5 deg/s
)
  vcan0  009   [8]  82 B5 C0 F4 8A D3 DC E7 ::
GnssImu(
    ImuValid: Invalid,
    AccelerationX: 24.125 m/s^2,
    AccelerationY: -61.25 m/s^2,
    AccelerationZ: 52.75 m/s^2,
    AngularRateX: 197.25 deg/s,
    AngularRateY: 205.0 deg/s,
    AngularRateZ: 207.5 deg/s
)
  vcan0  009   [8]  82 F5 CE F4 7A 84 52 E7 ::
GnssImu(
    ImuValid: Invalid,
    AccelerationX: 24.125 m/s^2,
    AccelerationY: -4.25 m/s^2,
    AccelerationZ: 52.75 m/s^2,
    AngularRateX: -194.75 deg/s,
    AngularRateY: 40.25 deg/s,
    AngularRateZ: 206.5 deg/s
)
  vcan0  009   [8]  82 F6 CE FC 7A B9 D6 E7 ::
GnssImu(
    ImuValid: Invalid,
    AccelerationX: 40.125 m/s^2,
    AccelerationY: -4.25 m/s^2,
    AccelerationZ: 60.75 m/s^2,
    AngularRateX: -66.75 deg/s,
    AngularRateY: 107.5 deg/s,
    AngularRateZ: 207.5 deg/s
)
  vcan0  009   [8]  83 16 4E FC 7B 31 58 F7 ::
GnssImu(
    ImuValid: Valid,
    AccelerationX: 40.125 m/s^2,
    AccelerationY: -7.75 m/s^2,
    AccelerationZ: 60.25 m/s^2,
    AngularRateX: -66.25 deg/s,
    AngularRateY: 131.0 deg/s,
    AngularRateZ: 238.5 deg/s
)
  vcan0  009   [8]  82 F5 CE FC 7B 99 14 F7 ::
GnssImu(
    ImuValid: Invalid,
    AccelerationX: 24.125 m/s^2,
    AccelerationY: -4.25 m/s^2,
    AccelerationZ: 60.75 m/s^2,
    AngularRateX: -66.25 deg/s,
    AngularRateY: 73.5 deg/s,
    AngularRateZ: 238.0 deg/s
)
  vcan0  009   [8]  82 F4 CE FC 7B AF DA F7 ::
GnssImu(
    ImuValid: Invalid,
    AccelerationX: 8.125 m/s^2,
    AccelerationY: -4.25 m/s^2,
    AccelerationZ: 60.75 m/s^2,
    AngularRateX: 189.75 deg/s,
    AngularRateY: 170.75 deg/s,
    AngularRateZ: 239.5 deg/s
)
  vcan0  009   [8]  82 D4 4E F4 7B 85 D9 07 ::
GnssImu(
    ImuValid: Invalid,
    AccelerationX: 8.125 m/s^2,
    AccelerationY: -4.75 m/s^2,
    AccelerationZ: 52.25 m/s^2,
    AngularRateX: -66.25 deg/s,
    AngularRateY: 152.25 deg/s,
    AngularRateZ: -240.5 deg/s
)
  vcan0  009   [8]  82 D3 CE F4 7B 3B D5 07 ::
GnssImu(
    ImuValid: Invalid,
    AccelerationX: -7.875 m/s^2,
    AccelerationY: -4.75 m/s^2,
    AccelerationZ: 52.75 m/s^2,
    AngularRateX: 189.75 deg/s,
    AngularRateY: 83.5 deg/s,
    AngularRateZ: -240.5 deg/s
)
  vcan0  009   [8]  82 B3 CE FC 7A FE D1 17 ::
GnssImu(
    ImuValid: Invalid,
    AccelerationX: -7.875 m/s^2,
    AccelerationY: -5.25 m/s^2,
    AccelerationZ: 60.75 m/s^2,
    AngularRateX: 61.25 deg/s,
    AngularRateY: 31.75 deg/s,
    AngularRateZ: -208.5 deg/s
)
  vcan0  009   [8]  82 73 40 FC 8A FB 51 27 ::
GnssImu(
    ImuValid: Invalid,
    AccelerationX: -7.875 m/s^2,
    AccelerationY: -62.25 m/s^2,
    AccelerationZ: 60.25 m/s^2,
    AngularRateX: 197.25 deg/s,
    AngularRateY: 31.5 deg/s,
    AngularRateZ: -177.5 deg/s
)
  vcan0  009   [8]  82 52 C4 F4 8B 28 D7 37 ::
GnssImu(
    ImuValid: Invalid,
    AccelerationX: -23.875 m/s^2,
    AccelerationY: -46.75 m/s^2,
    AccelerationZ: 52.75 m/s^2,
    AngularRateX: -186.25 deg/s,
    AngularRateY: 114.5 deg/s,
    AngularRateZ: -144.5 deg/s
)
  vcan0  009   [8]  82 52 48 F4 8B 77 11 47 ::
GnssImu(
    ImuValid: Invalid,
    AccelerationX: -23.875 m/s^2,
    AccelerationY: -30.75 m/s^2,
    AccelerationZ: 52.25 m/s^2,
    AngularRateX: 197.75 deg/s,
    AngularRateY: 23.25 deg/s,
    AngularRateZ: -114.0 deg/s
)
  vcan0  009   [8]  82 7F C4 E4 8B A4 DD 57 ::
GnssImu(
    ImuValid: Invalid,
    AccelerationX: 56.125 m/s^2,
    AccelerationY: -46.125 m/s^2,
    AccelerationZ: 36.75 m/s^2,
    AngularRateX: -186.25 deg/s,
    AngularRateY: 218.25 deg/s,
    AngularRateZ: -80.5 deg/s
)
  vcan0  009   [8]  82 10 40 F4 9B D4 91 66 ::
GnssImu(
    ImuValid: Invalid,
    AccelerationX: -55.875 m/s^2,
    AccelerationY: -63.75 m/s^2,
    AccelerationZ: 52.25 m/s^2,
    AngularRateX: -178.25 deg/s,
    AngularRateY: 29.25 deg/s,
    AngularRateZ: -51.0 deg/s
)
  vcan0  009   [8]  81 D0 C0 F4 9C D3 D3 76 ::
GnssImu(
    ImuValid: Valid,
    AccelerationX: -56.0 m/s^2,
    AccelerationY: -60.75 m/s^2,
    AccelerationZ: 52.75 m/s^2,
    AngularRateX: 206.25 deg/s,
    AngularRateY: 61.0 deg/s,
    AngularRateZ: -18.5 deg/s
)
  vcan0  009   [8]  81 B0 44 FC 9D FC 95 76 ::
GnssImu(
    ImuValid: Valid,
    AccelerationX: -56.0 m/s^2,
    AccelerationY: -45.25 m/s^2,
    AccelerationZ: 60.25 m/s^2,
    AngularRateX: -177.25 deg/s,
    AngularRateY: 95.75 deg/s,
    AngularRateZ: -19.0 deg/s
)
  vcan0  009   [8]  81 90 46 F4 9F 82 5B 85 ::
GnssImu(
    ImuValid: Valid,
    AccelerationX: -56.0 m/s^2,
    AccelerationY: -37.75 m/s^2,
    AccelerationZ: 52.25 m/s^2,
    AngularRateX: 79.75 deg/s,
    AngularRateY: 184.0 deg/s,
    AngularRateZ: 10.5 deg/s
)
  vcan0  009   [8]  81 50 40 FC A2 90 E9 85 ::
GnssImu(
    ImuValid: Valid,
    AccelerationX: -56.0 m/s^2,
    AccelerationY: -62.75 m/s^2,
    AccelerationZ: 60.25 m/s^2,
    AngularRateX: -174.75 deg/s,
    AngularRateY: -103.0 deg/s,
    AngularRateZ: 11.75 deg/s
)
  vcan0  009   [8]  81 11 46 FC A4 19 A9 75 ::
GnssImu(
    ImuValid: Valid,
    AccelerationX: -40.0 m/s^2,
    AccelerationY: -39.75 m/s^2,
    AccelerationZ: 60.25 m/s^2,
    AngularRateX: -45.75 deg/s,
    AngularRateY: -110.5 deg/s,
    AngularRateZ: -20.75 deg/s
)
  vcan0  009   [8]  80 D1 CE FC A5 7F A7 65 ::
GnssImu(
    ImuValid: Invalid,
    AccelerationX: -40.0 m/s^2,
    AccelerationY: -4.75 m/s^2,
    AccelerationZ: 60.75 m/s^2,
    AngularRateX: 210.75 deg/s,
    AngularRateY: -136.25 deg/s,
    AngularRateZ: -52.75 deg/s
)
  vcan0  009   [8]  80 72 C0 FC B6 92 2B 65 ::
GnssImu(
    ImuValid: Invalid,
    AccelerationX: -24.0 m/s^2,
    AccelerationY: -62.25 m/s^2,
    AccelerationZ: 60.75 m/s^2,
    AngularRateX: 91.25 deg/s,
    AngularRateY: -71.0 deg/s,
    AngularRateZ: -53.75 deg/s
)
  vcan0  009   [8]  80 33 46 FC B7 84 29 56 ::
GnssImu(
    ImuValid: Invalid,
    AccelerationX: -8.0 m/s^2,
    AccelerationY: -39.25 m/s^2,
    AccelerationZ: 60.25 m/s^2,
    AngularRateX: -164.25 deg/s,
    AngularRateY: -103.75 deg/s,
    AngularRateZ: -83.75 deg/s
)
  vcan0  009   [8]  80 14 48 FC B8 85 A7 46 ::
GnssImu(
    ImuValid: Invalid,
    AccelerationX: 8.0 m/s^2,
    AccelerationY: -31.75 m/s^2,
    AccelerationZ: 60.25 m/s^2,
    AngularRateX: -35.75 deg/s,
    AngularRateY: -135.75 deg/s,
    AngularRateZ: -114.75 deg/s
)
  vcan0  009   [8]  8F D4 B8 FC B9 75 69 36 ::
GnssImu(
    ImuValid: Valid,
    AccelerationX: 8.875 m/s^2,
    AccelerationY: 35.25 m/s^2,
    AccelerationZ: 60.625 m/s^2,
    AngularRateX: -35.25 deg/s,
    AngularRateY: -104.75 deg/s,
    AngularRateZ: -147.25 deg/s
)
  vcan0  009   [8]  8F D5 B4 F4 BA 53 27 26 ::
GnssImu(
    ImuValid: Valid,
    AccelerationX: 24.875 m/s^2,
    AccelerationY: 19.25 m/s^2,
    AccelerationZ: 52.625 m/s^2,
    AngularRateX: 221.25 deg/s,
    AngularRateY: -139.0 deg/s,
    AngularRateZ: -179.75 deg/s
)
  vcan0  009   [8]  8F F6 32 FC BB 21 2D 16 ::
GnssImu(
    ImuValid: Valid,
    AccelerationX: 40.875 m/s^2,
    AccelerationY: 11.75 m/s^2,
    AccelerationZ: 60.125 m/s^2,
    AngularRateX: -34.25 deg/s,
    AngularRateY: -46.0 deg/s,
    AngularRateZ: -211.75 deg/s
)
  vcan0  009   [8]  80 55 CE F4 AC 42 EB 06 ::
GnssImu(
    ImuValid: Invalid,
    AccelerationX: 24.0 m/s^2,
    AccelerationY: -6.75 m/s^2,
    AccelerationZ: 52.75 m/s^2,
    AngularRateX: 86.25 deg/s,
    AngularRateY: -76.0 deg/s,
    AngularRateZ: -242.25 deg/s
)
  vcan0  009   [8]  80 96 C6 F4 AD 45 A4 F6 ::
GnssImu(
    ImuValid: Invalid,
    AccelerationX: 40.0 m/s^2,
    AccelerationY: -37.75 m/s^2,
    AccelerationZ: 52.75 m/s^2,
    AngularRateX: -41.25 deg/s,
    AngularRateY: -187.75 deg/s,
    AngularRateZ: 237.25 deg/s
)
  vcan0  009   [8]  80 D7 4E FC 9D B8 A8 E6 ::
GnssImu(
    ImuValid: Invalid,
    AccelerationX: 56.0 m/s^2,
    AccelerationY: -4.75 m/s^2,
    AccelerationZ: 60.25 m/s^2,
    AngularRateX: -177.25 deg/s,
    AngularRateY: -116.5 deg/s,
    AngularRateZ: 205.25 deg/s
)
  vcan0  009   [8]  81 18 C4 F4 9D F0 68 E6 ::
GnssImu(
    ImuValid: Valid,
    AccelerationX: -56.0 m/s^2,
    AccelerationY: -47.625 m/s^2,
    AccelerationZ: 52.75 m/s^2,
    AngularRateX: -177.25 deg/s,
    AngularRateY: -113.0 deg/s,
    AngularRateZ: 204.75 deg/s
)
  vcan0  009   [8]  81 1B 4A F4 8D FD AC D6 ::
GnssImu(
    ImuValid: Valid,
    AccelerationX: -8.0 m/s^2,
    AccelerationY: -23.625 m/s^2,
    AccelerationZ: 52.25 m/s^2,
    AngularRateX: -57.25 deg/s,
    AngularRateY: -48.25 deg/s,
    AngularRateZ: 173.25 deg/s
)
  vcan0  009   [8]  80 FE 48 FC 8D 90 60 E6 ::
GnssImu(
    ImuValid: Invalid,
    AccelerationX: 40.0 m/s^2,
    AccelerationY: -28.125 m/s^2,
    AccelerationZ: 60.25 m/s^2,
    AngularRateX: -185.25 deg/s,
    AngularRateY: -247.0 deg/s,
    AngularRateZ: 204.75 deg/s
)
  vcan0  009   [8]  80 92 4F 04 8D 78 60 E6 ::
GnssImu(
    ImuValid: Invalid,
    AccelerationX: -24.0 m/s^2,
    AccelerationY: -1.75 m/s^2,
    AccelerationZ: -59.75 m/s^2,
    AngularRateX: -185.5 deg/s,
    AngularRateY: -248.5 deg/s,
    AngularRateZ: 204.75 deg/s
)
  vcan0  009   [8]  80 54 C7 04 9D 93 E0 F6 ::
GnssImu(
    ImuValid: Invalid,
    AccelerationX: 8.0 m/s^2,
    AccelerationY: -34.75 m/s^2,
    AccelerationZ: -59.25 m/s^2,
    AngularRateX: 206.5 deg/s,
    AngularRateY: -247.0 deg/s,
    AngularRateZ: 237.75 deg/s
)
  vcan0  009   [8]  80 95 C3 0C 9D 8E EC F7 ::
GnssImu(
    ImuValid: Invalid,
    AccelerationX: 24.0 m/s^2,
    AccelerationY: -49.75 m/s^2,
    AccelerationZ: -51.25 m/s^2,
    AngularRateX: 78.5 deg/s,
    AngularRateY: -55.25 deg/s,
    AngularRateZ: 239.75 deg/s
)
  vcan0  009   [8]  80 75 C1 0C BD 07 65 07 ::
GnssImu(
    ImuValid: Invalid,
    AccelerationX: 24.0 m/s^2,
    AccelerationY: -58.25 m/s^2,
    AccelerationZ: -51.25 m/s^2,
    AngularRateX: 222.5 deg/s,
    AngularRateY: -175.75 deg/s,
    AngularRateZ: -241.25 deg/s
)
  vcan0  009   [8]  80 93 CD 04 BD 8C 67 07 ::
GnssImu(
    ImuValid: Invalid,
    AccelerationX: -8.0 m/s^2,
    AccelerationY: -9.75 m/s^2,
    AccelerationZ: -59.25 m/s^2,
    AngularRateX: -161.5 deg/s,
    AngularRateY: -135.25 deg/s,
    AngularRateZ: -241.25 deg/s
)
  vcan0  009   [8]  80 33 CB 04 BD 53 2F 07 ::
GnssImu(
    ImuValid: Invalid,
    AccelerationX: -8.0 m/s^2,
    AccelerationY: -19.25 m/s^2,
    AccelerationZ: -59.25 m/s^2,
    AngularRateX: 222.5 deg/s,
    AngularRateY: -11.0 deg/s,
    AngularRateZ: -241.75 deg/s
)
  vcan0  009   [8]  80 31 C9 0C BC 43 A4 F7 ::
GnssImu(
    ImuValid: Invalid,
    AccelerationX: -40.0 m/s^2,
    AccelerationY: -27.25 m/s^2,
    AccelerationZ: -51.25 m/s^2,
    AngularRateX: 222.0 deg/s,
    AngularRateY: -188.0 deg/s,
    AngularRateZ: 239.25 deg/s
)
  vcan0  009   [8]  80 11 C1 04 BB 13 6E E7 ::
GnssImu(
    ImuValid: Invalid,
    AccelerationX: -40.0 m/s^2,
    AccelerationY: -59.75 m/s^2,
    AccelerationZ: -59.25 m/s^2,
    AngularRateX: 221.5 deg/s,
    AngularRateY: -31.0 deg/s,
    AngularRateZ: 206.75 deg/s
)
  vcan0  009   [8]  80 52 47 04 A9 D6 24 D7 ::
GnssImu(
    ImuValid: Invalid,
    AccelerationX: -24.0 m/s^2,
    AccelerationY: -34.75 m/s^2,
    AccelerationZ: -59.75 m/s^2,
    AngularRateX: 84.5 deg/s,
    AngularRateY: -178.75 deg/s,
    AngularRateZ: 174.25 deg/s
)
  vcan0  009   [8]  80 D2 47 04 A8 8D 66 C7 ::
GnssImu(
    ImuValid: Invalid,
    AccelerationX: -24.0 m/s^2,
    AccelerationY: -32.75 m/s^2,
    AccelerationZ: -59.75 m/s^2,
    AngularRateX: -44.0 deg/s,
    AngularRateY: -151.25 deg/s,
    AngularRateZ: 142.75 deg/s
)
  vcan0  009   [8]  81 32 47 0C A7 36 64 C7 ::
GnssImu(
    ImuValid: Valid,
    AccelerationX: -24.0 m/s^2,
    AccelerationY: -35.25 m/s^2,
    AccelerationZ: -51.75 m/s^2,
    AngularRateX: 83.5 deg/s,
    AngularRateY: -188.75 deg/s,
    AngularRateZ: 142.75 deg/s
)
  vcan0  009   [8]  81 92 CF 0C 95 CF A4 B7 ::
GnssImu(
    ImuValid: Valid,
    AccelerationX: -24.0 m/s^2,
    AccelerationY: -1.75 m/s^2,
    AccelerationZ: -51.25 m/s^2,
    AngularRateX: 202.5 deg/s,
    AngularRateY: -179.25 deg/s,
    AngularRateZ: 111.25 deg/s
)
  vcan0  009   [8]  81 F2 CB 0C 94 4C E8 B7 ::
GnssImu(
    ImuValid: Valid,
    AccelerationX: -24.0 m/s^2,
    AccelerationY: -16.25 m/s^2,
    AccelerationZ: -51.25 m/s^2,
    AngularRateX: -182.0 deg/s,
    AngularRateY: -123.25 deg/s,
    AngularRateZ: 111.75 deg/s
)
  vcan0  009   [8]  82 12 4D 0C 92 8A 66 B7 ::
GnssImu(
    ImuValid: Invalid,
    AccelerationX: -23.875 m/s^2,
    AccelerationY: -11.75 m/s^2,
    AccelerationZ: -51.75 m/s^2,
    AngularRateX: 73.0 deg/s,
    AngularRateY: -151.5 deg/s,
    AngularRateZ: 110.75 deg/s
)
  vcan0  009   [8]  82 31 CB 0C 90 95 2E B7 ::
GnssImu(
    ImuValid: Invalid,
    AccelerationX: -39.875 m/s^2,
    AccelerationY: -19.25 m/s^2,
    AccelerationZ: -51.25 m/s^2,
    AngularRateX: -56.0 deg/s,
    AngularRateY: -22.75 deg/s,
    AngularRateZ: 110.25 deg/s
)
  vcan0  009   [8]  82 31 C7 04 9E 7F 16 A8 ::
GnssImu(
    ImuValid: Invalid,
    AccelerationX: -39.875 m/s^2,
    AccelerationY: -35.25 m/s^2,
    AccelerationZ: -59.25 m/s^2,
    AngularRateX: 207.0 deg/s,
    AngularRateY: 103.75 deg/s,
    AngularRateZ: 80.0 deg/s
)
  vcan0  009   [8]  82 12 41 04 9C 08 1A A8 ::
GnssImu(
    ImuValid: Invalid,
    AccelerationX: -23.875 m/s^2,
    AccelerationY: -59.75 m/s^2,
    AccelerationZ: -59.75 m/s^2,
    AngularRateX: -178.0 deg/s,
    AngularRateY: 160.5 deg/s,
    AngularRateZ: 80.0 deg/s
)
  vcan0  009   [8]  82 32 49 04 89 61 94 A8 ::
GnssImu(
    ImuValid: Invalid,
    AccelerationX: -23.875 m/s^2,
    AccelerationY: -27.25 m/s^2,
    AccelerationZ: -59.75 m/s^2,
    AngularRateX: -59.5 deg/s,
    AngularRateY: 70.0 deg/s,
    AngularRateZ: 81.0 deg/s
)
  vcan0  009   [8]  82 52 C7 0C 87 11 1A A8 ::
GnssImu(
    ImuValid: Invalid,
    AccelerationX: -23.875 m/s^2,
    AccelerationY: -34.75 m/s^2,
    AccelerationZ: -51.25 m/s^2,
    AngularRateX: -60.5 deg/s,
    AngularRateY: 161.0 deg/s,
    AngularRateZ: 80.0 deg/s
)
  vcan0  009   [8]  82 92 C5 04 85 45 D8 A9 ::
GnssImu(
    ImuValid: Invalid,
    AccelerationX: -23.875 m/s^2,
    AccelerationY: -41.75 m/s^2,
    AccelerationZ: -59.25 m/s^2,
    AngularRateX: -61.5 deg/s,
    AngularRateY: 132.25 deg/s,
    AngularRateZ: 83.5 deg/s
)
  vcan0  009   [8]  82 D2 CF 0C 73 BD 1C A9 ::
GnssImu(
    ImuValid: Invalid,
    AccelerationX: -23.875 m/s^2,
    AccelerationY: -0.75 m/s^2,
    AccelerationZ: -51.25 m/s^2,
    AngularRateX: -70.5 deg/s,
    AngularRateY: 203.75 deg/s,
    AngularRateZ: 82.0 deg/s
)
  vcan0  009   [8]  82 F1 4B 04 72 45 58 B9 ::
GnssImu(
    ImuValid: Invalid,
    AccelerationX: -39.875 m/s^2,
    AccelerationY: -16.25 m/s^2,
    AccelerationZ: -59.75 m/s^2,
    AngularRateX: -71.0 deg/s,
    AngularRateY: 132.25 deg/s,
    AngularRateZ: 114.5 deg/s
)
  vcan0  009   [8]  82 DF CC F4 71 92 54 C9 ::
GnssImu(
    ImuValid: Invalid,
    AccelerationX: 56.125 m/s^2,
    AccelerationY: -12.625 m/s^2,
    AccelerationZ: 52.75 m/s^2,
    AngularRateX: 56.75 deg/s,
    AngularRateY: 73.0 deg/s,
    AngularRateZ: 146.5 deg/s
)
  vcan0  009   [8]  82 DE CC F4 71 B0 D0 D9 ::
GnssImu(
    ImuValid: Invalid,
    AccelerationX: 40.125 m/s^2,
    AccelerationY: -12.625 m/s^2,
    AccelerationZ: 52.75 m/s^2,
    AngularRateX: -199.25 deg/s,
    AngularRateY: 11.0 deg/s,
    AngularRateZ: 179.5 deg/s
)
  vcan0  009   [8]  82 FB 48 F4 71 C4 DE E9 ::
GnssImu(
    ImuValid: Invalid,
    AccelerationX: -7.875 m/s^2,
    AccelerationY: -28.125 m/s^2,
    AccelerationZ: 52.25 m/s^2,
    AngularRateX: -199.25 deg/s,
    AngularRateY: 236.25 deg/s,
    AngularRateZ: 211.5 deg/s
)
  vcan0  009   [8]  82 F9 44 FC 71 5B D6 E9 ::
GnssImu(
    ImuValid: Invalid,
    AccelerationX: -39.875 m/s^2,
    AccelerationY: -44.125 m/s^2,
    AccelerationZ: 60.25 m/s^2,
    AngularRateX: 184.75 deg/s,
    AngularRateY: 101.5 deg/s,
    AngularRateZ: 211.5 deg/s
)
  vcan0  009   [8]  82 D8 42 F4 71 65 1A F9 ::
GnssImu(
    ImuValid: Invalid,
    AccelerationX: -55.875 m/s^2,
    AccelerationY: -52.625 m/s^2,
    AccelerationZ: 52.25 m/s^2,
    AngularRateX: -71.25 deg/s,
    AngularRateY: 166.25 deg/s,
    AngularRateZ: 242.0 deg/s
)
  vcan0  009   [8]  82 B7 40 F4 71 AF 14 F9 ::
GnssImu(
    ImuValid: Invalid,
    AccelerationX: 56.125 m/s^2,
    AccelerationY: -61.25 m/s^2,
    AccelerationZ: 52.25 m/s^2,
    AngularRateX: 184.75 deg/s,
    AngularRateY: 74.75 deg/s,
    AngularRateZ: 242.0 deg/s
)
  vcan0  009   [8]  82 96 C0 FC 71 C7 9F 08 ::
GnssImu(
    ImuValid: Invalid,
    AccelerationX: 40.125 m/s^2,
    AccelerationY: -61.75 m/s^2,
    AccelerationZ: 60.75 m/s^2,
    AngularRateX: 184.75 deg/s,
    AngularRateY: 252.25 deg/s,
    AngularRateZ: -239.0 deg/s
)
  vcan0  009   [8]  82 95 C0 F4 72 31 11 18 ::
GnssImu(
    ImuValid: Invalid,
    AccelerationX: 24.125 m/s^2,
    AccelerationY: -61.75 m/s^2,
    AccelerationZ: 52.75 m/s^2,
    AngularRateX: -70.75 deg/s,
    AngularRateY: 19.0 deg/s,
    AngularRateZ: -208.0 deg/s
)
  vcan0  009   [8]  82 95 42 F4 72 DB 91 18 ::
GnssImu(
    ImuValid: Invalid,
    AccelerationX: 24.125 m/s^2,
    AccelerationY: -53.75 m/s^2,
    AccelerationZ: 52.25 m/s^2,
    AngularRateX: 185.25 deg/s,
    AngularRateY: 29.5 deg/s,
    AngularRateZ: -207.0 deg/s
)
  vcan0  009   [8]  82 74 C8 F4 73 A7 13 28 ::
GnssImu(
    ImuValid: Invalid,
    AccelerationX: 8.125 m/s^2,
    AccelerationY: -30.25 m/s^2,
    AccelerationZ: 52.75 m/s^2,
    AngularRateX: 185.75 deg/s,
    AngularRateY: 58.25 deg/s,
    AngularRateZ: -176.0 deg/s
)
  vcan0  009   [8]  82 73 42 FC 84 B1 1D 38 ::
GnssImu(
    ImuValid: Invalid,
    AccelerationX: -7.875 m/s^2,
    AccelerationY: -54.25 m/s^2,
    AccelerationZ: 60.25 m/s^2,
    AngularRateX: -61.75 deg/s,
    AngularRateY: 219.0 deg/s,
    AngularRateZ: -144.0 deg/s
)
  vcan0  009   [8]  82 31 CC FC 86 28 1F 38 ::
GnssImu(
    ImuValid: Invalid,
    AccelerationX: -39.875 m/s^2,
    AccelerationY: -15.25 m/s^2,
    AccelerationZ: 60.75 m/s^2,
    AngularRateX: -188.75 deg/s,
    AngularRateY: 242.5 deg/s,
    AngularRateZ: -144.0 deg/s
)
  vcan0  009   [8]  81 F0 C2 FC 97 BB D5 38 ::
GnssImu(
    ImuValid: Valid,
    AccelerationX: -56.0 m/s^2,
    AccelerationY: -52.25 m/s^2,
    AccelerationZ: 60.75 m/s^2,
    AngularRateX: 203.75 deg/s,
    AngularRateY: 91.5 deg/s,
    AngularRateZ: -142.5 deg/s
)
  vcan0  009   [8]  81 B0 48 FC 98 A9 9D 38 ::
GnssImu(
    ImuValid: Valid,
    AccelerationX: -56.0 m/s^2,
    AccelerationY: -29.25 m/s^2,
    AccelerationZ: 60.25 m/s^2,
    AngularRateX: -51.75 deg/s,
    AngularRateY: 218.5 deg/s,
    AngularRateZ: -143.0 deg/s
)
  vcan0  009   [8]  81 BF 4A EC 99 02 11 38 ::
GnssImu(
    ImuValid: Valid,
    AccelerationX: 56.0 m/s^2,
    AccelerationY: -21.125 m/s^2,
    AccelerationZ: 44.25 m/s^2,
    AngularRateX: 76.75 deg/s,
    AngularRateY: 16.0 deg/s,
    AngularRateZ: -144.0 deg/s
)
  vcan0  009   [8]  81 BF 4A EC 99 48 D9 27 ::
GnssImu(
    ImuValid: Valid,
    AccelerationX: 56.0 m/s^2,
    AccelerationY: -21.125 m/s^2,
    AccelerationZ: 44.25 m/s^2,
    AngularRateX: -179.25 deg/s,
    AngularRateY: 148.5 deg/s,
    AngularRateZ: -176.5 deg/s
)
  vcan0  009   [8]  81 9F 46 EC 99 92 1D 27 ::
GnssImu(
    ImuValid: Valid,
    AccelerationX: 56.0 m/s^2,
    AccelerationY: -37.625 m/s^2,
    AccelerationZ: 44.25 m/s^2,
    AngularRateX: 76.75 deg/s,
    AngularRateY: 217.0 deg/s,
    AngularRateZ: -178.0 deg/s
)
  vcan0  009   [8]  81 90 40 F4 99 D0 19 27 ::
GnssImu(
    ImuValid: Valid,
    AccelerationX: -56.0 m/s^2,
    AccelerationY: -61.75 m/s^2,
    AccelerationZ: 52.25 m/s^2,
    AngularRateX: -179.25 deg/s,
    AngularRateY: 157.0 deg/s,
    AngularRateZ: -178.0 deg/s
)
  vcan0  009   [8]  81 B0 C8 FC 89 D3 5F 27 ::
GnssImu(
    ImuValid: Valid,
    AccelerationX: -56.0 m/s^2,
    AccelerationY: -29.25 m/s^2,
    AccelerationZ: 60.75 m/s^2,
    AngularRateX: 196.75 deg/s,
    AngularRateY: 253.0 deg/s,
    AngularRateZ: -177.5 deg/s
)
  vcan0  009   [8]  81 B0 C4 F4 89 DB 9B 27 ::
GnssImu(
    ImuValid: Valid,
    AccelerationX: -56.0 m/s^2,
    AccelerationY: -45.25 m/s^2,
    AccelerationZ: 52.75 m/s^2,
    AngularRateX: 196.75 deg/s,
    AngularRateY: 189.5 deg/s,
    AngularRateZ: -177.0 deg/s
)
  vcan0  009   [8]  81 B0 42 FC 8A 2A 9B 37 ::
GnssImu(
    ImuValid: Valid,
    AccelerationX: -56.0 m/s^2,
    AccelerationY: -53.25 m/s^2,
    AccelerationZ: 60.25 m/s^2,
    AngularRateX: 69.25 deg/s,
    AngularRateY: 178.5 deg/s,
    AngularRateZ: -145.0 deg/s
)
  vcan0  009   [8]  81 50 C6 FC 8A FD 9D 47 ::
GnssImu(
    ImuValid: Valid,
    AccelerationX: -56.0 m/s^2,
    AccelerationY: -38.75 m/s^2,
    AccelerationZ: 60.75 m/s^2,
    AngularRateX: -58.75 deg/s,
    AngularRateY: 223.75 deg/s,
    AngularRateZ: -113.0 deg/s
)
  vcan0  009   [8]  81 30 CE FC 8C 1F DB 57 ::
GnssImu(
    ImuValid: Valid,
    AccelerationX: -56.0 m/s^2,
    AccelerationY: -7.25 m/s^2,
    AccelerationZ: 60.75 m/s^2,
    AngularRateX: 198.25 deg/s,
    AngularRateY: 177.75 deg/s,
    AngularRateZ: -80.5 deg/s
)
  vcan0  009   [8]  81 30 44 FC 9D 7E 55 67 ::
GnssImu(
    ImuValid: Valid,
    AccelerationX: -56.0 m/s^2,
    AccelerationY: -47.25 m/s^2,
    AccelerationZ: 60.25 m/s^2,
    AngularRateX: 78.75 deg/s,
    AngularRateY: 87.75 deg/s,
    AngularRateZ: -49.5 deg/s
)
  vcan0  010   [8]  14 B0 00 00 00 00 00 00 :: Unknown frame id 16 (0x10)
  vcan0  002   [8]  60 32 75 22 BF 32 A0 00 :: Wrong data size: 8 instead of 6 bytes
  vcan0  003   [8]  8A 33 CA 92 ED 6C 89 E0 ::
GnssPosition(
    PositionValid: Invalid,
    Latitude: 67.620677 deg,
    Longitude: -107.94946 deg,
    PositionAccuracy: 56 m
)
  vcan0  004   [8]  49 3E 32 90 00 00 00 00 :: Wrong data size: 8 instead of 4 bytes
  vcan0  005   [8]  81 10 E9 9D CA 89 B5 54 ::
GnssAttitude(
    AttitudeValid: Valid,
    Roll: 31.200000000000017 deg,
    RollAccuracy: 32.800000000000004 deg,
    Pitch: 177.90000000000003 deg,
    PitchAccuracy: 11.4 deg,
    Heading: 171.3 deg,
    HeadingAccuracy: 16.900000000000002 deg
)
  vcan0  006   [8]  88 10 20 02 00 0B 40 00 ::
GnssOdo(
    DistanceValid: Invalid,
    DistanceTrip: 1050692 m,
    DistanceAccuracy: 393220 m,
    DistanceTotal: 4098 km
)
  vcan0  007   [8]  5C 70 92 01 D0 00 00 00 :: Wrong data size: 8 instead of 5 bytes
  vcan0  008   [8]  20 10 00 00 00 00 00 00 :: Wrong data size: 8 instead of 2 bytes
  vcan0  009   [8]  80 F0 C8 FC 9E E8 DF 77 ::
GnssImu(
    ImuValid: Invalid,
    AccelerationX: -56.0 m/s^2,
    AccelerationY: -28.25 m/s^2,
    AccelerationZ: 60.75 m/s^2,
    AngularRateX: -176.75 deg/s,
    AngularRateY: 254.5 deg/s,
    AngularRateZ: -16.5 deg/s
)
  vcan0  009   [8]  80 7F CE E4 90 5F EF 77 ::
GnssImu(
    ImuValid: Invalid,
    AccelerationX: 56.0 m/s^2,
    AccelerationY: -6.125 m/s^2,
    AccelerationZ: 36.75 m/s^2,
    AngularRateX: 200.25 deg/s,
    AngularRateY: -10.25 deg/s,
    AngularRateZ: -16.25 deg/s
)
  vcan0  009   [8]  8F FF B6 E4 A1 C1 2F 87 ::
GnssImu(
    ImuValid: Valid,
    AccelerationX: 56.875 m/s^2,
    AccelerationY: 27.875 m/s^2,
    AccelerationZ: 36.625 m/s^2,
    AngularRateX: -47.25 deg/s,
    AngularRateY: -4.0 deg/s,
    AngularRateZ: 14.25 deg/s
)
  vcan0  009   [8]  8F 5F 3E EC A3 5B 65 77 ::
GnssImu(
    ImuValid: Valid,
    AccelerationX: 56.875 m/s^2,
    AccelerationY: 57.375 m/s^2,
    AccelerationZ: 44.125 m/s^2,
    AngularRateX: 209.75 deg/s,
    AngularRateY: -170.5 deg/s,
    AngularRateZ: -17.25 deg/s
)
  vcan0  009   [8]  8E FF 32 EC B5 1F 2B 67 ::
GnssImu(
    ImuValid: Invalid,
    AccelerationX: 56.875 m/s^2,
    AccelerationY: 11.875 m/s^2,
    AccelerationZ: 44.125 m/s^2,
    AngularRateX: 218.75 deg/s,
    AngularRateY: -78.25 deg/s,
    AngularRateZ: -49.75 deg/s
)
  vcan0  009   [8]  8E BF 30 E4 B6 DD E3 57 ::
GnssImu(
    ImuValid: Invalid,
    AccelerationX: 56.875 m/s^2,
    AccelerationY: 2.875 m/s^2,
    AccelerationZ: 36.125 m/s^2,
    AngularRateX: -36.75 deg/s,
    AngularRateY: -194.25 deg/s,
    AngularRateZ: -80.25 deg/s
)
  vcan0  009   [8]  8F 92 36 F4 AA 55 A9 26 ::
GnssImu(
    ImuValid: Valid,
    AccelerationX: -23.125 m/s^2,
    AccelerationY: 26.25 m/s^2,
    AccelerationZ: 52.125 m/s^2,
    AngularRateX: -42.75 deg/s,
    AngularRateY: -106.75 deg/s,
    AngularRateZ: -178.75 deg/s
)
  vcan0  009   [8]  8F D4 B8 F4 AB 8D 25 15 ::
GnssImu(
    ImuValid: Valid,
    AccelerationX: 8.875 m/s^2,
    AccelerationY: 35.25 m/s^2,
    AccelerationZ: 52.625 m/s^2,
    AngularRateX: -42.25 deg/s,
    AngularRateY: -167.25 deg/s,
    AngularRateZ: -213.75 deg/s
)
  vcan0  009   [8]  8F F7 34 F4 AC C9 63 15 ::
GnssImu(
    ImuValid: Valid,
    AccelerationX: 56.875 m/s^2,
    AccelerationY: 19.75 m/s^2,
    AccelerationZ: 52.125 m/s^2,
    AngularRateX: -41.75 deg/s,
    AngularRateY: -195.5 deg/s,
    AngularRateZ: -213.25 deg/s
)
  vcan0  009   [8]  80 1A 44 F4 AD C8 67 15 ::
GnssImu(
    ImuValid: Invalid,
    AccelerationX: -24.0 m/s^2,
    AccelerationY: -47.625 m/s^2,
    AccelerationZ: 52.25 m/s^2,
    AngularRateX: -169.25 deg/s,
    AngularRateY: -131.5 deg/s,
    AngularRateZ: -213.25 deg/s
)
  vcan0  009   [8]  80 3C C6 FC AE 68 A3 15 ::
GnssImu(
    ImuValid: Invalid,
    AccelerationX: 8.0 m/s^2,
    AccelerationY: -39.125 m/s^2,
    AccelerationZ: 60.75 m/s^2,
    AngularRateX: -168.75 deg/s,
    AngularRateY: -201.5 deg/s,
    AngularRateZ: -212.75 deg/s
)
  vcan0  009   [8]  8F FE 38 F4 AE F7 A1 15 ::
GnssImu(
    ImuValid: Valid,
    AccelerationX: 40.875 m/s^2,
    AccelerationY: 35.875 m/s^2,
    AccelerationZ: 52.125 m/s^2,
    AngularRateX: 215.25 deg/s,
    AngularRateY: -224.75 deg/s,
    AngularRateZ: -212.75 deg/s
)
  vcan0  009   [8]  8F FE 3E FC AF 94 ED 15 ::
GnssImu(
    ImuValid: Valid,
    AccelerationX: 40.875 m/s^2,
    AccelerationY: 59.875 m/s^2,
    AccelerationZ: 60.125 m/s^2,
    AngularRateX: -168.25 deg/s,
    AngularRateY: -38.75 deg/s,
    AngularRateZ: -212.25 deg/s
)
  vcan0  009   [8]  8F DE B6 FC B0 5F B1 06 ::
GnssImu(
    ImuValid: Valid,
    AccelerationX: 40.875 m/s^2,
    AccelerationY: 27.375 m/s^2,
    AccelerationZ: 60.625 m/s^2,
    AngularRateX: 216.25 deg/s,
    AngularRateY: 21.75 deg/s,
    AngularRateZ: -242.75 deg/s
)
  vcan0  009   [8]  8F B0 39 04 B0 F4 FD 06 ::
GnssImu(
    ImuValid: Valid,
    AccelerationX: -55.125 m/s^2,
    AccelerationY: 38.75 m/s^2,
    AccelerationZ: -59.875 m/s^2,
    AngularRateX: -168.0 deg/s,
    AngularRateY: 223.25 deg/s,
    AngularRateZ: -242.25 deg/s
)
  vcan0  009   [8]  8F F0 37 0C B0 F7 BE F6 ::
GnssImu(
    ImuValid: Valid,
    AccelerationX: -55.125 m/s^2,
    AccelerationY: 31.75 m/s^2,
    AccelerationZ: -51.875 m/s^2,
    AngularRateX: 216.0 deg/s,
    AngularRateY: 239.25 deg/s,
    AngularRateZ: 237.25 deg/s
)
  vcan0  009   [8]  80 10 45 0C B0 8A BE E6 ::
GnssImu(
    ImuValid: Invalid,
    AccelerationX: -56.0 m/s^2,
    AccelerationY: -43.75 m/s^2,
    AccelerationZ: -51.75 m/s^2,
    AngularRateX: 88.0 deg/s,
    AngularRateY: 232.5 deg/s,
    AngularRateZ: 205.25 deg/s
)
  vcan0  009   [8]  80 31 41 0C BF ED 66 D6 ::
GnssImu(
    ImuValid: Invalid,
    AccelerationX: -40.0 m/s^2,
    AccelerationY: -59.25 m/s^2,
    AccelerationZ: -51.75 m/s^2,
    AngularRateX: -32.5 deg/s,
    AngularRateY: -145.25 deg/s,
    AngularRateZ: 172.75 deg/s
)
  vcan0  009   [8]  80 51 CB 0C AE B0 6A D6 ::
GnssImu(
    ImuValid: Invalid,
    AccelerationX: -40.0 m/s^2,
    AccelerationY: -18.75 m/s^2,
    AccelerationZ: -51.25 m/s^2,
    AngularRateX: -169.0 deg/s,
    AngularRateY: -85.0 deg/s,
    AngularRateZ: 172.75 deg/s
)
  vcan0  009   [8]  80 D2 45 0C AD 35 66 C6 ::
GnssImu(
    ImuValid: Invalid,
    AccelerationX: -24.0 m/s^2,
    AccelerationY: -40.75 m/s^2,
    AccelerationZ: -51.75 m/s^2,
    AngularRateX: -41.5 deg/s,
    AngularRateY: -156.75 deg/s,
    AngularRateZ: 140.75 deg/s
)
  vcan0  009   [8]  81 53 CD 04 9B 9E EA B6 ::
GnssImu(
    ImuValid: Valid,
    AccelerationX: -8.0 m/s^2,
    AccelerationY: -10.75 m/s^2,
    AccelerationZ: -59.25 m/s^2,
    AngularRateX: 77.5 deg/s,
    AngularRateY: -86.25 deg/s,
    AngularRateZ: 109.75 deg/s
)
  vcan0  009   [8]  81 B4 CB 04 99 DC 66 B6 ::
GnssImu(
    ImuValid: Valid,
    AccelerationX: 8.0 m/s^2,
    AccelerationY: -17.25 m/s^2,
    AccelerationZ: -59.25 m/s^2,
    AngularRateX: -179.5 deg/s,
    AngularRateY: -146.25 deg/s,
    AngularRateZ: 108.75 deg/s
)
  vcan0  009   [8]  81 B5 C9 04 98 4C 62 B7 ::
GnssImu(
    ImuValid: Valid,
    AccelerationX: 24.0 m/s^2,
    AccelerationY: -25.25 m/s^2,
    AccelerationZ: -59.25 m/s^2,
    AngularRateX: -180.0 deg/s,
    AngularRateY: -219.25 deg/s,
    AngularRateZ: 110.75 deg/s
)
  vcan0  009   [8]  81 F5 C9 04 96 9B 20 B7 ::
GnssImu(
    ImuValid: Valid,
    AccelerationX: 24.0 m/s^2,
    AccelerationY: -24.25 m/s^2,
    AccelerationZ: -59.25 m/s^2,
    AngularRateX: 203.0 deg/s,
    AngularRateY: -246.5 deg/s,
    AngularRateZ: 110.25 deg/s
)
  vcan0  009   [8]  82 15 47 04 94 E8 26 B7 ::
GnssImu(
    ImuValid: Invalid,
    AccelerationX: 24.125 m/s^2,
    AccelerationY: -35.75 m/s^2,
    AccelerationZ: -59.75 m/s^2,
    AngularRateX: -182.0 deg/s,
    AngularRateY: -145.5 deg/s,
    AngularRateZ: 110.25 deg/s
)
  vcan0  009   [8]  82 14 C3 04 93 03 EA B7 ::
GnssImu(
    ImuValid: Invalid,
    AccelerationX: 8.125 m/s^2,
    AccelerationY: -51.75 m/s^2,
    AccelerationZ: -59.25 m/s^2,
    AngularRateX: 201.5 deg/s,
    AngularRateY: -96.0 deg/s,
    AngularRateZ: 111.75 deg/s
)
  vcan0  009   [8]  82 14 4F 0C 81 1F 6E A7 ::
GnssImu(
    ImuValid: Invalid,
    AccelerationX: 8.125 m/s^2,
    AccelerationY: -3.75 m/s^2,
    AccelerationZ: -51.75 m/s^2,
    AngularRateX: 192.5 deg/s,
    AngularRateY: -30.25 deg/s,
    AngularRateZ: 78.75 deg/s
)
  vcan0  009   [8]  82 13 CF 0C 8F 4C 1A A7 ::
GnssImu(
    ImuValid: Invalid,
    AccelerationX: -7.875 m/s^2,
    AccelerationY: -3.75 m/s^2,
    AccelerationZ: -51.25 m/s^2,
    AngularRateX: -184.5 deg/s,
    AngularRateY: 164.75 deg/s,
    AngularRateZ: 78.0 deg/s
)
  vcan0  009   [8]  82 33 CD 04 8E 0A 98 A8 ::
GnssImu(
    ImuValid: Invalid,
    AccelerationX: -7.875 m/s^2,
    AccelerationY: -11.25 m/s^2,
    AccelerationZ: -59.25 m/s^2,
    AngularRateX: 71.0 deg/s,
    AngularRateY: 128.5 deg/s,
    AngularRateZ: 81.0 deg/s
)
  vcan0  009   [8]  82 73 4B 04 8C E9 12 A8 ::
GnssImu(
    ImuValid: Invalid,
    AccelerationX: -7.875 m/s^2,
    AccelerationY: -18.25 m/s^2,
    AccelerationZ: -59.75 m/s^2,
    AngularRateX: -58.0 deg/s,
    AngularRateY: 46.5 deg/s,
    AngularRateZ: 80.0 deg/s
)
  vcan0  009   [8]  82 93 C9 04 8B B7 94 A8 ::
GnssImu(
    ImuValid: Invalid,
    AccelerationX: -7.875 m/s^2,
    AccelerationY: -25.75 m/s^2,
    AccelerationZ: -59.25 m/s^2,
    AngularRateX: 197.5 deg/s,
    AngularRateY: 75.25 deg/s,
    AngularRateZ: 81.0 deg/s
)
  vcan0  009   [8]  82 B4 43 04 8A 96 16 A8 ::
GnssImu(
    ImuValid: Invalid,
    AccelerationX: 8.125 m/s^2,
    AccelerationY: -49.25 m/s^2,
    AccelerationZ: -59.75 m/s^2,
    AngularRateX: 69.0 deg/s,
    AngularRateY: 105.25 deg/s,
    AngularRateZ: 80.0 deg/s
)
  vcan0  009   [8]  82 B4 4D 04 79 A6 D0 A8 ::
GnssImu(
    ImuValid: Invalid,
    AccelerationX: 8.125 m/s^2,
    AccelerationY: -9.25 m/s^2,
    AccelerationZ: -59.75 m/s^2,
    AngularRateX: 60.5 deg/s,
    AngularRateY: 10.25 deg/s,
    AngularRateZ: 81.5 deg/s
)
  vcan0  009   [8]  82 D4 47 0C 78 FA 54 A8 ::
GnssImu(
    ImuValid: Invalid,
    AccelerationX: 8.125 m/s^2,
    AccelerationY: -32.75 m/s^2,
    AccelerationZ: -51.75 m/s^2,
    AngularRateX: 60.0 deg/s,
    AngularRateY: 79.5 deg/s,
    AngularRateZ: 80.5 deg/s
)
  vcan0  009   [8]  82 B4 45 04 78 90 90 B8 ::
GnssImu(
    ImuValid: Invalid,
    AccelerationX: 8.125 m/s^2,
    AccelerationY: -41.25 m/s^2,
    AccelerationZ: -59.75 m/s^2,
    AngularRateX: -196.0 deg/s,
    AngularRateY: 9.0 deg/s,
    AngularRateZ: 113.0 deg/s
)
  vcan0  009   [8]  82 F2 C3 0C 78 21 DC C9 ::
GnssImu(
    ImuValid: Invalid,
    AccelerationX: -23.875 m/s^2,
    AccelerationY: -48.25 m/s^2,
    AccelerationZ: -51.25 m/s^2,
    AngularRateX: -68.0 deg/s,
    AngularRateY: 194.0 deg/s,
    AngularRateZ: 147.5 deg/s
)
  vcan0  009   [8]  82 F1 C3 0C 77 D9 94 C9 ::
GnssImu(
    ImuValid: Invalid,
    AccelerationX: -39.875 m/s^2,
    AccelerationY: -48.25 m/s^2,
    AccelerationZ: -51.25 m/s^2,
    AngularRateX: -68.5 deg/s,
    AngularRateY: 77.5 deg/s,
    AngularRateZ: 147.0 deg/s
)
  vcan0  009   [8]  82 F0 C3 04 77 80 58 D9 ::
GnssImu(
    ImuValid: Invalid,
    AccelerationX: -55.875 m/s^2,
    AccelerationY: -48.25 m/s^2,
    AccelerationZ: -59.25 m/s^2,
    AngularRateX: -196.5 deg/s,
    AngularRateY: 136.0 deg/s,
    AngularRateZ: 178.5 deg/s
)
  vcan0  009   [8]  82 F0 4F 0C 67 36 9C D8 ::
GnssImu(
    ImuValid: Invalid,
    AccelerationX: -55.875 m/s^2,
    AccelerationY: -0.25 m/s^2,
    AccelerationZ: -51.75 m/s^2,
    AngularRateX: 51.5 deg/s,
    AngularRateY: 195.25 deg/s,
    AngularRateZ: 177.0 deg/s
)
  vcan0  009   [8]  82 FF 4C F4 66 FD D8 D8 ::
GnssImu(
    ImuValid: Invalid,
    AccelerationX: 56.125 m/s^2,
    AccelerationY: -12.125 m/s^2,
    AccelerationZ: 52.25 m/s^2,
    AngularRateX: -76.75 deg/s,
    AngularRateY: 143.75 deg/s,
    AngularRateZ: 177.5 deg/s
)
  vcan0  009   [8]  83 1E CC F4 66 C7 52 E8 ::
GnssImu(
    ImuValid: Valid,
    AccelerationX: 40.125 m/s^2,
    AccelerationY: -15.625 m/s^2,
    AccelerationZ: 52.75 m/s^2,
    AngularRateX: 179.25 deg/s,
    AngularRateY: 44.25 deg/s,
    AngularRateZ: 208.5 deg/s
)
  vcan0  009   [8]  83 3D CA FC 66 B2 98 F8 ::
GnssImu(
    ImuValid: Valid,
    AccelerationX: 24.125 m/s^2,
    AccelerationY: -23.125 m/s^2,
    AccelerationZ: 60.75 m/s^2,
    AngularRateX: 51.25 deg/s,
    AngularRateY: 139.0 deg/s,
    AngularRateZ: 241.0 deg/s
)
  vcan0  009   [8]  83 7F 46 F4 66 E1 1B 08 ::
GnssImu(
    ImuValid: Valid,
    AccelerationX: 56.125 m/s^2,
    AccelerationY: -38.125 m/s^2,
    AccelerationZ: 52.25 m/s^2,
    AngularRateX: -76.75 deg/s,
    AngularRateY: 190.0 deg/s,
    AngularRateZ: -240.0 deg/s
)
  vcan0  009   [8]  84 1F 40 FC 67 F4 13 18 ::
GnssImu(
    ImuValid: Invalid,
    AccelerationX: 56.25 m/s^2,
    AccelerationY: -63.625 m/s^2,
    AccelerationZ: 60.25 m/s^2,
    AngularRateX: -204.25 deg/s,
    AngularRateY: 63.25 deg/s,
    AngularRateZ: -208.0 deg/s
)
  vcan0  009   [8]  83 FF 4C F4 59 32 59 27 ::
GnssImu(
    ImuValid: Valid,
    AccelerationX: 56.125 m/s^2,
    AccelerationY: -12.125 m/s^2,
    AccelerationZ: 52.25 m/s^2,
    AngularRateX: 44.75 deg/s,
    AngularRateY: 147.0 deg/s,
    AngularRateZ: -177.5 deg/s
)
  vcan0  009   [8]  83 5F 42 FC 6A 0D 51 27 ::
GnssImu(
    ImuValid: Valid,
    AccelerationX: 56.125 m/s^2,
    AccelerationY: -54.625 m/s^2,
    AccelerationZ: 60.25 m/s^2,
    AngularRateX: -74.75 deg/s,
    AngularRateY: 16.75 deg/s,
    AngularRateZ: -177.5 deg/s
)
  vcan0  009   [8]  83 1C 4E FC 6A C9 D1 37 ::
GnssImu(
    ImuValid: Valid,
    AccelerationX: 8.125 m/s^2,
    AccelerationY: -7.625 m/s^2,
    AccelerationZ: 60.25 m/s^2,
    AngularRateX: -74.75 deg/s,
    AngularRateY: 28.5 deg/s,
    AngularRateZ: -144.5 deg/s
)
  vcan0  009   [8]  82 DA C4 F4 7C 02 D5 47 ::
GnssImu(
    ImuValid: Invalid,
    AccelerationX: -23.875 m/s^2,
    AccelerationY: -44.625 m/s^2,
    AccelerationZ: 52.75 m/s^2,
    AngularRateX: 62.25 deg/s,
    AngularRateY: 80.0 deg/s,
    AngularRateZ: -112.5 deg/s
)
  vcan0  009   [8]  82 9A 4C FC 7D 39 1F 47 ::
GnssImu(
    ImuValid: Invalid,
    AccelerationX: -23.875 m/s^2,
    AccelerationY: -13.625 m/s^2,
    AccelerationZ: 60.25 m/s^2,
    AngularRateX: -65.25 deg/s,
    AngularRateY: 243.5 deg/s,
    AngularRateZ: -114.0 deg/s
)
  vcan0  009   [8]  82 5E C6 FC 7D 93 1B 57 ::
GnssImu(
    ImuValid: Invalid,
    AccelerationX: 40.125 m/s^2,
    AccelerationY: -38.625 m/s^2,
    AccelerationZ: 60.75 m/s^2,
    AngularRateX: 190.75 deg/s,
    AngularRateY: 185.0 deg/s,
    AngularRateZ: -82.0 deg/s
)
  vcan0  009   [8]  83 39 48 F4 9D 09 1F 77 ::
GnssImu(
    ImuValid: Valid,
    AccelerationX: -39.875 m/s^2,
    AccelerationY: -31.125 m/s^2,
    AccelerationZ: 52.25 m/s^2,
    AngularRateX: -49.25 deg/s,
    AngularRateY: 240.5 deg/s,
    AngularRateZ: -18.0 deg/s
)
  vcan0  009   [8]  82 FD 4A FC 8C 4B 95 77 ::
GnssImu(
    ImuValid: Invalid,
    AccelerationX: 24.125 m/s^2,
    AccelerationY: -20.125 m/s^2,
    AccelerationZ: 60.25 m/s^2,
    AngularRateX: 198.25 deg/s,
    AngularRateY: 84.5 deg/s,
    AngularRateZ: -17.0 deg/s
)
  vcan0  009   [8]  82 7B C4 F4 9A 65 5D 87 ::
GnssImu(
    ImuValid: Invalid,
    AccelerationX: -7.875 m/s^2,
    AccelerationY: -46.125 m/s^2,
    AccelerationZ: 52.75 m/s^2,
    AngularRateX: -50.75 deg/s,
    AngularRateY: 214.25 deg/s,
    AngularRateZ: 14.5 deg/s
)
  vcan0  009   [8]  82 3A 42 F4 9A 0F 15 87 ::
GnssImu(
    ImuValid: Invalid,
    AccelerationX: -23.875 m/s^2,
    AccelerationY: -55.125 m/s^2,
    AccelerationZ: 52.25 m/s^2,
    AngularRateX: 205.25 deg/s,
    AngularRateY: 80.75 deg/s,
    AngularRateZ: 14.0 deg/s
)
  vcan0  009   [8]  81 7A C6 FC 9A AF 55 97 ::
GnssImu(
    ImuValid: Valid,
    AccelerationX: -24.0 m/s^2,
    AccelerationY: -38.125 m/s^2,
    AccelerationZ: 60.75 m/s^2,
    AngularRateX: 205.25 deg/s,
    AngularRateY: 90.75 deg/s,
    AngularRateZ: 46.5 deg/s
)
  vcan0  009   [8]  80 B9 C8 FC 9B 7E 9D A8 ::
GnssImu(
    ImuValid: Invalid,
    AccelerationX: -40.0 m/s^2,
    AccelerationY: -29.125 m/s^2,
    AccelerationZ: 60.75 m/s^2,
    AngularRateX: 77.75 deg/s,
    AngularRateY: 215.75 deg/s,
    AngularRateZ: 81.0 deg/s
)
  vcan0  009   [8]  80 17 42 F4 AC 81 11 C8 ::
GnssImu(
    ImuValid: Invalid,
    AccelerationX: 56.0 m/s^2,
    AccelerationY: -55.75 m/s^2,
    AccelerationZ: 52.25 m/s^2,
    AngularRateX: -41.75 deg/s,
    AngularRateY: 24.0 deg/s,
    AngularRateZ: 144.0 deg/s
)
  vcan0  009   [8]  8F 54 3A FC AE 21 59 D8 ::
GnssImu(
    ImuValid: Valid,
    AccelerationX: 8.875 m/s^2,
    AccelerationY: 41.25 m/s^2,
    AccelerationZ: 60.125 m/s^2,
    AngularRateX: -40.75 deg/s,
    AngularRateY: 146.0 deg/s,
    AngularRateZ: 176.5 deg/s
)
  vcan0  009   [8]  8E 92 B4 FC B0 18 EB D8 ::
GnssImu(
    ImuValid: Invalid,
    AccelerationX: -23.125 m/s^2,
    AccelerationY: 18.25 m/s^2,
    AccelerationZ: 60.625 m/s^2,
    AngularRateX: -167.75 deg/s,
    AngularRateY: -78.5 deg/s,
    AngularRateZ: 177.75 deg/s
)
  vcan0  009   [8]  8D 92 30 F4 C1 F3 A5 D8 ::
GnssImu(
    ImuValid: Valid,
    AccelerationX: -23.25 m/s^2,
    AccelerationY: 2.25 m/s^2,
    AccelerationZ: 52.125 m/s^2,
    AngularRateX: 224.75 deg/s,
    AngularRateY: -161.0 deg/s,
    AngularRateZ: 177.25 deg/s
)
  vcan0  009   [8]  8C D2 BA FC C3 93 AF C8 ::
GnssImu(
    ImuValid: Invalid,
    AccelerationX: -23.25 m/s^2,
    AccelerationY: 43.25 m/s^2,
    AccelerationZ: 60.625 m/s^2,
    AngularRateX: 225.75 deg/s,
    AngularRateY: -7.0 deg/s,
    AngularRateZ: 145.25 deg/s
)
  vcan0  009   [8]  8C D3 38 F4 D4 EE E9 A8 ::
GnssImu(
    ImuValid: Invalid,
    AccelerationX: -7.25 m/s^2,
    AccelerationY: 35.25 m/s^2,
    AccelerationZ: 52.125 m/s^2,
    AngularRateX: 106.25 deg/s,
    AngularRateY: -97.25 deg/s,
    AngularRateZ: 81.75 deg/s
)
  vcan0  009   [8]  8C F3 BC FC E5 F5 AB 98 ::
GnssImu(
    ImuValid: Invalid,
    AccelerationX: -7.25 m/s^2,
    AccelerationY: 51.75 m/s^2,
    AccelerationZ: 60.625 m/s^2,
    AngularRateX: -13.25 deg/s,
    AngularRateY: -64.75 deg/s,
    AngularRateZ: 49.25 deg/s
)
  vcan0  009   [8]  8D 13 B6 FC F7 34 6B 78 ::
GnssImu(
    ImuValid: Valid,
    AccelerationX: -7.25 m/s^2,
    AccelerationY: 24.25 m/s^2,
    AccelerationZ: 60.625 m/s^2,
    AngularRateX: -132.25 deg/s,
    AngularRateY: -76.75 deg/s,
    AngularRateZ: -15.25 deg/s
)
  vcan0  009   [8]  8C B6 B0 F5 18 5C E3 17 ::
GnssImu(
    ImuValid: Invalid,
    AccelerationX: 40.75 m/s^2,
    AccelerationY: 2.75 m/s^2,
    AccelerationZ: 53.625 m/s^2,
    AngularRateX: -243.75 deg/s,
    AngularRateY: -202.25 deg/s,
    AngularRateZ: -208.25 deg/s
)
  vcan0  009   [8]  8C 15 32 FD 28 CD A0 E6 ::
GnssImu(
    ImuValid: Invalid,
    AccelerationX: 24.75 m/s^2,
    AccelerationY: 8.25 m/s^2,
    AccelerationZ: 61.125 m/s^2,
    AngularRateX: -107.75 deg/s,
    AngularRateY: -243.25 deg/s,
    AngularRateZ: 205.25 deg/s
)
  vcan0  009   [8]  8B 15 30 F5 39 3D 6A B6 ::
GnssImu(
    ImuValid: Valid,
    AccelerationX: 24.625 m/s^2,
    AccelerationY: 0.25 m/s^2,
    AccelerationZ: 53.125 m/s^2,
    AngularRateX: -99.25 deg/s,
    AngularRateY: -92.25 deg/s,
    AngularRateZ: 108.75 deg/s
)
  vcan0  009   [8]  8A 56 3C FD 39 59 62 86 ::
GnssImu(
    ImuValid: Invalid,
    AccelerationX: 40.625 m/s^2,
    AccelerationY: 49.25 m/s^2,
    AccelerationZ: 61.125 m/s^2,
    AngularRateX: -99.25 deg/s,
    AngularRateY: -218.5 deg/s,
    AngularRateZ: 12.75 deg/s
)
  vcan0  009   [8]  8A 95 30 F5 49 D4 A4 57 ::
GnssImu(
    ImuValid: Invalid,
    AccelerationX: 24.625 m/s^2,
    AccelerationY: 2.25 m/s^2,
    AccelerationZ: 53.125 m/s^2,
    AngularRateX: -219.25 deg/s,
    AngularRateY: -178.75 deg/s,
    AngularRateZ: -80.75 deg/s
)
  vcan0  009   [8]  8B 56 B2 F5 3A 1D 6A 17 ::
GnssImu(
    ImuValid: Valid,
    AccelerationX: 40.625 m/s^2,
    AccelerationY: 9.25 m/s^2,
    AccelerationZ: 53.625 m/s^2,
    AngularRateX: -98.75 deg/s,
    AngularRateY: -94.25 deg/s,
    AngularRateZ: -209.25 deg/s
)
  vcan0  009   [8]  8C 58 BE F5 19 E0 22 07 ::
GnssImu(
    ImuValid: Invalid,
    AccelerationX: -55.25 m/s^2,
    AccelerationY: 57.375 m/s^2,
    AccelerationZ: 53.625 m/s^2,
    AngularRateX: -243.25 deg/s,
    AngularRateY: -210.0 deg/s,
    AngularRateZ: -241.75 deg/s
)
  vcan0  009   [8]  8D 9A 34 F4 F8 60 2C 07 ::
GnssImu(
    ImuValid: Valid,
    AccelerationX: -23.25 m/s^2,
    AccelerationY: 18.375 m/s^2,
    AccelerationZ: 52.125 m/s^2,
    AngularRateX: -131.75 deg/s,
    AngularRateY: -58.0 deg/s,
    AngularRateZ: -241.75 deg/s
)
  vcan0  009   [8]  8E 9A 34 FC D6 40 2E 06 ::
GnssImu(
    ImuValid: Invalid,
    AccelerationX: -23.125 m/s^2,
    AccelerationY: 18.375 m/s^2,
    AccelerationZ: 60.125 m/s^2,
    AngularRateX: -148.75 deg/s,
    AngularRateY: -28.0 deg/s,
    AngularRateZ: -243.75 deg/s
)
  vcan0  009   [8]  8E FC BC FC A4 F0 26 06 ::
GnssImu(
    ImuValid: Invalid,
    AccelerationX: 8.875 m/s^2,
    AccelerationY: 51.875 m/s^2,
    AccelerationZ: 60.625 m/s^2,
    AngularRateX: -173.75 deg/s,
    AngularRateY: -145.0 deg/s,
    AngularRateZ: -243.75 deg/s
)
  vcan0  009   [8]  80 1D 42 F4 83 00 20 06 ::
GnssImu(
    ImuValid: Invalid,
    AccelerationX: 24.0 m/s^2,
    AccelerationY: -55.625 m/s^2,
    AccelerationZ: 52.25 m/s^2,
    AngularRateX: -190.25 deg/s,
    AngularRateY: -256.0 deg/s,
    AngularRateZ: -243.75 deg/s
)
  vcan0  009   [8]  81 5C 4C F4 51 10 28 06 ::
GnssImu(
    ImuValid: Valid,
    AccelerationX: 8.0 m/s^2,
    AccelerationY: -14.625 m/s^2,
    AccelerationZ: 52.25 m/s^2,
    AngularRateX: -215.25 deg/s,
    AngularRateY: -127.0 deg/s,
    AngularRateZ: -243.75 deg/s
)
  vcan0  009   [8]  82 7D C6 F4 3F 60 1E 06 ::
GnssImu(
    ImuValid: Invalid,
    AccelerationX: 24.125 m/s^2,
    AccelerationY: -38.125 m/s^2,
    AccelerationZ: 52.75 m/s^2,
    AngularRateX: -224.25 deg/s,
    AngularRateY: 230.0 deg/s,
    AngularRateZ: -244.0 deg/s
)
  vcan0  009   [8]  83 5C C0 FC 1E 30 14 06 ::
GnssImu(
    ImuValid: Valid,
    AccelerationX: 8.125 m/s^2,
    AccelerationY: -62.625 m/s^2,
    AccelerationZ: 60.75 m/s^2,
    AngularRateX: -240.75 deg/s,
    AngularRateY: 67.0 deg/s,
    AngularRateZ: -244.0 deg/s
)
  vcan0  009   [8]  83 91 47 0B FD FD 52 26 ::
GnssImu(
    ImuValid: Valid,
    AccelerationX: -39.875 m/s^2,
    AccelerationY: -33.75 m/s^2,
    AccelerationZ: -52.75 m/s^2,
    AngularRateX: -1.5 deg/s,
    AngularRateY: 47.75 deg/s,
    AngularRateZ: -179.5 deg/s
)
  vcan0  009   [8]  82 FE C8 F3 CF 51 1E 76 ::
GnssImu(
    ImuValid: Invalid,
    AccelerationX: 40.125 m/s^2,
    AccelerationY: -28.125 m/s^2,
    AccelerationZ: 51.75 m/s^2,
    AngularRateX: -24.25 deg/s,
    AngularRateY: 229.0 deg/s,
    AngularRateZ: -20.0 deg/s
)
  vcan0  009   [8]  83 3D 4C F3 BF 8E 92 B6 ::
GnssImu(
    ImuValid: Valid,
    AccelerationX: 24.125 m/s^2,
    AccelerationY: -15.125 m/s^2,
    AccelerationZ: 51.25 m/s^2,
    AngularRateX: 95.75 deg/s,
    AngularRateY: 40.75 deg/s,
    AngularRateZ: 109.0 deg/s
)
  vcan0  009   [8]  83 5E CE FB BF 7E DD 06 ::
GnssImu(
    ImuValid: Valid,
    AccelerationX: 40.125 m/s^2,
    AccelerationY: -6.625 m/s^2,
    AccelerationZ: 59.75 m/s^2,
    AngularRateX: 95.75 deg/s,
    AngularRateY: 215.75 deg/s,
    AngularRateZ: -242.5 deg/s
)
  vcan0  009   [8]  83 9C C0 FB DF 95 D5 56 ::
GnssImu(
    ImuValid: Valid,
    AccelerationX: 8.125 m/s^2,
    AccelerationY: -61.625 m/s^2,
    AccelerationZ: 59.75 m/s^2,
    AngularRateX: -16.25 deg/s,
    AngularRateY: 89.25 deg/s,
    AngularRateZ: -82.5 deg/s
)
  vcan0  009   [8]  83 DB 4C FB F7 BC DB A5 ::
GnssImu(
    ImuValid: Valid,
    AccelerationX: -7.875 m/s^2,
    AccelerationY: -12.625 m/s^2,
    AccelerationZ: 59.25 m/s^2,
    AngularRateX: -132.25 deg/s,
    AngularRateY: 187.75 deg/s,
    AngularRateZ: 75.5 deg/s
)
  vcan0  009   [8]  83 3F C4 F4 14 3E D1 C6 ::
GnssImu(
    ImuValid: Valid,
    AccelerationX: 56.125 m/s^2,
    AccelerationY: -47.125 m/s^2,
    AccelerationZ: 52.75 m/s^2,
    AngularRateX: 10.25 deg/s,
    AngularRateY: 19.75 deg/s,
    AngularRateZ: 141.5 deg/s
)
  vcan0  009   [8]  81 F8 C7 0C 23 00 57 F6 ::
GnssImu(
    ImuValid: Valid,
    AccelerationX: -56.0 m/s^2,
    AccelerationY: -32.125 m/s^2,
    AccelerationZ: -51.25 m/s^2,
    AngularRateX: -238.5 deg/s,
    AngularRateY: 112.0 deg/s,
    AngularRateZ: 236.5 deg/s
)
  vcan0  009   [8]  81 57 47 0C 45 1F DD F6 ::
GnssImu(
    ImuValid: Valid,
    AccelerationX: 56.0 m/s^2,
    AccelerationY: -34.75 m/s^2,
    AccelerationZ: -51.75 m/s^2,
    AngularRateX: 162.5 deg/s,
    AngularRateY: 209.75 deg/s,
    AngularRateZ: 237.5 deg/s
)
  vcan0  009   [8]  8F F1 3B 0C 66 AF D7 F7 ::
GnssImu(
    ImuValid: Valid,
    AccelerationX: -39.125 m/s^2,
    AccelerationY: 47.75 m/s^2,
    AccelerationZ: -51.875 m/s^2,
    AngularRateX: 179.0 deg/s,
    AngularRateY: 122.75 deg/s,
    AngularRateZ: 239.5 deg/s
)
  vcan0  009   [8]  8F 70 33 04 78 8F D1 F8 ::
GnssImu(
    ImuValid: Valid,
    AccelerationX: -55.125 m/s^2,
    AccelerationY: 13.75 m/s^2,
    AccelerationZ: -59.875 m/s^2,
    AngularRateX: 188.0 deg/s,
    AngularRateY: 24.75 deg/s,
    AngularRateZ: 241.5 deg/s
)
  vcan0  009   [8]  8F 50 BD 04 8C FF D9 F8 ::
GnssImu(
    ImuValid: Valid,
    AccelerationX: -55.125 m/s^2,
    AccelerationY: 53.25 m/s^2,
    AccelerationZ: -59.375 m/s^2,
    AngularRateX: 198.0 deg/s,
    AngularRateY: 159.75 deg/s,
    AngularRateZ: 241.5 deg/s
)
  vcan0  009   [8]  8F 1E B4 FC A0 CF E9 F8 ::
GnssImu(
    ImuValid: Valid,
    AccelerationX: 40.875 m/s^2,
    AccelerationY: 16.375 m/s^2,
    AccelerationZ: 60.625 m/s^2,
    AngularRateX: 208.25 deg/s,
    AngularRateY: -99.25 deg/s,
    AngularRateZ: 241.75 deg/s
)
  vcan0  009   [8]  8E D1 37 04 D4 D5 6D F7 ::
GnssImu(
    ImuValid: Invalid,
    AccelerationX: -39.125 m/s^2,
    AccelerationY: 31.25 m/s^2,
    AccelerationZ: -59.875 m/s^2,
    AngularRateX: -22.0 deg/s,
    AngularRateY: -34.75 deg/s,
    AngularRateZ: 238.75 deg/s
)
  vcan0  009   [8]  81 F4 C7 0D 54 F6 63 B8 ::
GnssImu(
    ImuValid: Valid,
    AccelerationX: 8.0 m/s^2,
    AccelerationY: -32.25 m/s^2,
    AccelerationZ: -50.25 m/s^2,
    AngularRateX: 42.0 deg/s,
    AngularRateY: -192.75 deg/s,
    AngularRateZ: 112.75 deg/s
)
  vcan0  009   [8]  82 7A C6 FC E0 88 63 58 ::
GnssImu(
    ImuValid: Invalid,
    AccelerationX: -23.875 m/s^2,
    AccelerationY: -38.125 m/s^2,
    AccelerationZ: 60.75 m/s^2,
    AngularRateX: -143.75 deg/s,
    AngularRateY: -199.5 deg/s,
    AngularRateZ: -79.25 deg/s
)
  vcan0  009   [8]  8E D6 BD 04 A9 8E 21 47 ::
GnssImu(
    ImuValid: Invalid,
    AccelerationX: 40.875 m/s^2,
    AccelerationY: 55.25 m/s^2,
    AccelerationZ: -59.375 m/s^2,
    AngularRateX: 84.5 deg/s,
    AngularRateY: -231.25 deg/s,
    AngularRateZ: -113.75 deg/s
)
  vcan0  009   [8]  8E 95 3E E5 53 12 B7 46 ::
GnssImu(
    ImuValid: Invalid,
    AccelerationX: 24.875 m/s^2,
    AccelerationY: 58.25 m/s^2,
    AccelerationZ: 37.125 m/s^2,
    AngularRateX: 41.75 deg/s,
    AngularRateY: 113.0 deg/s,
    AngularRateZ: -114.75 deg/s
)
  vcan0  009   [8]  8E 1A 38 FD 02 86 60 A6 ::
GnssImu(
    ImuValid: Invalid,
    AccelerationX: -23.125 m/s^2,
    AccelerationY: 32.375 m/s^2,
    AccelerationZ: 61.125 m/s^2,
    AngularRateX: 1.25 deg/s,
    AngularRateY: -247.75 deg/s,
    AngularRateZ: 76.75 deg/s
)
  vcan0  009   [8]  8C 5A B4 F5 3D 29 16 48 ::
GnssImu(
    ImuValid: Invalid,
    AccelerationX: -23.25 m/s^2,
    AccelerationY: 17.375 m/s^2,
    AccelerationZ: 53.625 m/s^2,
    AngularRateX: -97.25 deg/s,
    AngularRateY: 98.5 deg/s,
    AngularRateZ: -112.0 deg/s
)
  vcan0  009   [8]  8E D8 3C FD 2F E5 12 08 ::
GnssImu(
    ImuValid: Invalid,
    AccelerationX: -55.125 m/s^2,
    AccelerationY: 51.375 m/s^2,
    AccelerationZ: 61.125 m/s^2,
    AngularRateX: -104.25 deg/s,
    AngularRateY: 46.25 deg/s,
    AngularRateZ: -240.0 deg/s
)
  vcan0  009   [8]  80 DC CA F4 F2 F0 2E 07 ::
GnssImu(
    ImuValid: Invalid,
    AccelerationX: 8.0 m/s^2,
    AccelerationY: -20.625 m/s^2,
    AccelerationZ: 52.75 m/s^2,
    AngularRateX: -134.75 deg/s,
    AngularRateY: -17.0 deg/s,
    AngularRateZ: -241.75 deg/s
)
  vcan0  009   [8]  81 7E 4C F4 C6 20 20 08 ::
GnssImu(
    ImuValid: Valid,
    AccelerationX: 40.0 m/s^2,
    AccelerationY: -14.125 m/s^2,
    AccelerationZ: 52.25 m/s^2,
    AngularRateX: -156.75 deg/s,
    AngularRateY: -254.0 deg/s,
    AngularRateZ: -239.75 deg/s
)
  vcan0  009   [8]  81 9C 4A FC B8 50 24 08 ::
GnssImu(
    ImuValid: Valid,
    AccelerationX: 8.0 m/s^2,
    AccelerationY: -21.625 m/s^2,
    AccelerationZ: 60.25 m/s^2,
    AngularRateX: -163.75 deg/s,
    AngularRateY: -187.0 deg/s,
    AngularRateZ: -239.75 deg/s
)
  vcan0  009   [8]  81 BB CE F4 99 C0 2C 08 ::
GnssImu(
    ImuValid: Valid,
    AccelerationX: -8.0 m/s^2,
    AccelerationY: -5.125 m/s^2,
    AccelerationZ: 52.75 m/s^2,
    AngularRateX: -179.25 deg/s,
    AngularRateY: -52.0 deg/s,
    AngularRateZ: -239.75 deg/s
)
  vcan0  009   [8]  82 5A C2 FC 8B 80 2E 08 ::
GnssImu(
    ImuValid: Invalid,
    AccelerationX: -23.875 m/s^2,
    AccelerationY: -54.625 m/s^2,
    AccelerationZ: 60.75 m/s^2,
    AngularRateX: -186.25 deg/s,
    AngularRateY: -24.0 deg/s,
    AngularRateZ: -239.75 deg/s
)
  vcan0  009   [8]  82 B8 44 F4 6D 40 28 08 ::
GnssImu(
    ImuValid: Invalid,
    AccelerationX: -55.875 m/s^2,
    AccelerationY: -45.125 m/s^2,
    AccelerationZ: 52.25 m/s^2,
    AngularRateX: -201.25 deg/s,
    AngularRateY: -124.0 deg/s,
    AngularRateZ: -239.75 deg/s
)
  vcan0  009   [8]  83 39 CE F4 4D E5 6C 28 ::
GnssImu(
    ImuValid: Valid,
    AccelerationX: -39.875 m/s^2,
    AccelerationY: -7.125 m/s^2,
    AccelerationZ: 52.75 m/s^2,
    AngularRateX: -89.25 deg/s,
    AngularRateY: -49.75 deg/s,
    AngularRateZ: -175.25 deg/s
)
  vcan0  010   [8]  15 B0 00 00 00 00 00 00 :: Unknown frame id 16 (0x10)
  vcan0  002   [8]  60 30 F5 62 BF 32 A0 00 :: Wrong data size: 8 instead of 6 bytes
  vcan0  003   [8]  8A 53 CA 9A ED 4C 89 E0 ::
GnssPosition(
    PositionValid: Invalid,
    Latitude: 134.733637 deg,
    Longitude: -108.014996 deg,
    PositionAccuracy: 56 m
)
  vcan0  004   [8]  49 3E 32 90 00 00 00 00 :: Wrong data size: 8 instead of 4 bytes
  vcan0  005   [8]  81 10 E1 9D 66 42 4D 56 ::
GnssAttitude(
    AttitudeValid: Valid,
    Roll: 31.200000000000017 deg,
    RollAccuracy: 26.400000000000002 deg,
    Pitch: 177.90000000000003 deg,
    PitchAccuracy: 15.3 deg,
    Heading: 247.20000000000002 deg,
    HeadingAccuracy: 17.2 deg
)
  vcan0  006   [8]  88 30 20 02 00 0B 40 00 ::
GnssOdo(
    DistanceValid: Invalid,
    DistanceTrip: 1054788 m,
    DistanceAccuracy: 393220 m,
    DistanceTotal: 4098 km
)
  vcan0  007   [8]  56 D0 8E 02 E0 00 00 00 :: Wrong data size: 8 instead of 5 bytes
  vcan0  008   [8]  20 10 00 00 00 00 00 00 :: Wrong data size: 8 instead of 2 bytes
  vcan0  009   [8]  83 7D 44 F4 2D 8C 64 47 ::
GnssImu(
    ImuValid: Valid,
    AccelerationX: 24.125 m/s^2,
    AccelerationY: -46.125 m/s^2,
    AccelerationZ: 52.25 m/s^2,
    AngularRateX: -233.25 deg/s,
    AngularRateY: -183.25 deg/s,
    AngularRateZ: -113.25 deg/s
)
  vcan0  009   [8]  83 DF 44 F4 0B 7D A6 77 ::
GnssImu(
    ImuValid: Valid,
    AccelerationX: 56.125 m/s^2,
    AccelerationY: -44.625 m/s^2,
    AccelerationZ: 52.25 m/s^2,
    AngularRateX: -122.25 deg/s,
    AngularRateY: -152.25 deg/s,
    AngularRateZ: -16.75 deg/s
)
  vcan0  009   [8]  84 73 47 04 07 A8 A0 B7 ::
GnssImu(
    ImuValid: Invalid,
    AccelerationX: -7.75 m/s^2,
    AccelerationY: -34.25 m/s^2,
    AccelerationZ: -59.75 m/s^2,
    AngularRateX: -252.5 deg/s,
    AngularRateY: -245.5 deg/s,
    AngularRateZ: 111.25 deg/s
)
  vcan0  009   [8]  85 34 4F 04 03 EB 20 F7 ::
GnssImu(
    ImuValid: Valid,
    AccelerationX: 8.25 m/s^2,
    AccelerationY: -3.25 m/s^2,
    AccelerationZ: -59.75 m/s^2,
    AngularRateX: 129.5 deg/s,
    AngularRateY: -241.5 deg/s,
    AngularRateZ: 238.25 deg/s
)
  vcan0  009   [8]  85 B7 47 0C 10 32 A1 47 ::
GnssImu(
    ImuValid: Valid,
    AccelerationX: 56.25 m/s^2,
    AccelerationY: -33.25 m/s^2,
    AccelerationZ: -51.75 m/s^2,
    AngularRateX: 8.0 deg/s,
    AngularRateY: -237.0 deg/s,
    AngularRateZ: -112.75 deg/s
)
  vcan0  009   [8]  85 98 45 0C 2C DE 97 87 ::
GnssImu(
    ImuValid: Valid,
    AccelerationX: -55.75 m/s^2,
    AccelerationY: -41.625 m/s^2,
    AccelerationZ: -51.75 m/s^2,
    AngularRateX: 22.0 deg/s,
    AngularRateY: 125.75 deg/s,
    AngularRateZ: 15.0 deg/s
)
  vcan0  009   [8]  84 B6 43 0C 76 0F D7 F8 ::
GnssImu(
    ImuValid: Invalid,
    AccelerationX: 40.25 m/s^2,
    AccelerationY: -49.25 m/s^2,
    AccelerationZ: -51.75 m/s^2,
    AngularRateX: 187.0 deg/s,
    AngularRateY: 112.75 deg/s,
    AngularRateZ: 241.5 deg/s
)
  vcan0  009   [8]  83 30 CF 0C 84 5F DB F9 ::
GnssImu(
    ImuValid: Valid,
    AccelerationX: -55.875 m/s^2,
    AccelerationY: -3.25 m/s^2,
    AccelerationZ: -51.25 m/s^2,
    AngularRateX: 194.0 deg/s,
    AngularRateY: 181.75 deg/s,
    AngularRateZ: 243.5 deg/s
)
  vcan0  009   [8]  82 1D 4A F4 93 0F D9 F9 ::
GnssImu(
    ImuValid: Invalid,
    AccelerationX: 24.125 m/s^2,
    AccelerationY: -23.625 m/s^2,
    AccelerationZ: 52.25 m/s^2,
    AngularRateX: 201.75 deg/s,
    AngularRateY: 144.75 deg/s,
    AngularRateZ: 243.5 deg/s
)
  vcan0  009   [8]  80 3B C0 F4 C2 0F D7 F9 ::
GnssImu(
    ImuValid: Invalid,
    AccelerationX: -8.0 m/s^2,
    AccelerationY: -63.125 m/s^2,
    AccelerationZ: 52.75 m/s^2,
    AngularRateX: 225.25 deg/s,
    AngularRateY: 112.75 deg/s,
    AngularRateZ: 243.5 deg/s
)
  vcan0  009   [8]  8E 3D BA FC E1 2F D1 F9 ::
GnssImu(
    ImuValid: Invalid,
    AccelerationX: 24.875 m/s^2,
    AccelerationY: 40.875 m/s^2,
    AccelerationZ: 60.625 m/s^2,
    AngularRateX: 240.75 deg/s,
    AngularRateY: 18.75 deg/s,
    AngularRateZ: 243.5 deg/s
)
  vcan0  009   [8]  8C DE 3A E5 20 AE 11 C9 ::
GnssImu(
    ImuValid: Invalid,
    AccelerationX: 40.75 m/s^2,
    AccelerationY: 43.375 m/s^2,
    AccelerationZ: 37.125 m/s^2,
    AngularRateX: 16.25 deg/s,
    AngularRateY: 26.75 deg/s,
    AngularRateZ: 146.0 deg/s
)
  vcan0  009   [8]  8D 74 B8 F5 2F 12 CD 78 ::
GnssImu(
    ImuValid: Valid,
    AccelerationX: 8.75 m/s^2,
    AccelerationY: 33.75 m/s^2,
    AccelerationZ: 53.625 m/s^2,
    AngularRateX: 23.75 deg/s,
    AngularRateY: -47.0 deg/s,
    AngularRateZ: -14.5 deg/s
)
  vcan0  009   [8]  8E B7 B0 FD 30 2E 5F 18 ::
GnssImu(
    ImuValid: Invalid,
    AccelerationX: 56.875 m/s^2,
    AccelerationY: 2.75 m/s^2,
    AccelerationZ: 61.625 m/s^2,
    AngularRateX: 24.25 deg/s,
    AngularRateY: 242.75 deg/s,
    AngularRateZ: -207.5 deg/s
)
  vcan0  009   [8]  8F 1B B6 FD 20 85 18 C8 ::
GnssImu(
    ImuValid: Valid,
    AccelerationX: -7.125 m/s^2,
    AccelerationY: 24.375 m/s^2,
    AccelerationZ: 61.625 m/s^2,
    AngularRateX: -111.75 deg/s,
    AngularRateY: 136.25 deg/s,
    AngularRateZ: 144.0 deg/s
)
  vcan0  009   [8]  80 37 44 F5 11 4B 16 78 ::
GnssImu(
    ImuValid: Invalid,
    AccelerationX: 56.0 m/s^2,
    AccelerationY: -47.25 m/s^2,
    AccelerationZ: 53.25 m/s^2,
    AngularRateX: 136.75 deg/s,
    AngularRateY: 100.5 deg/s,
    AngularRateZ: -16.0 deg/s
)
  vcan0  009   [8]  81 77 C8 FD 03 70 12 58 ::
GnssImu(
    ImuValid: Valid,
    AccelerationX: 56.0 m/s^2,
    AccelerationY: -30.25 m/s^2,
    AccelerationZ: 61.75 m/s^2,
    AngularRateX: -254.25 deg/s,
    AngularRateY: 39.0 deg/s,
    AngularRateZ: -80.0 deg/s
)
  vcan0  009   [8]  81 F8 CE F4 F5 92 52 38 ::
GnssImu(
    ImuValid: Valid,
    AccelerationX: -56.0 m/s^2,
    AccelerationY: -4.125 m/s^2,
    AccelerationZ: 52.75 m/s^2,
    AngularRateX: 122.75 deg/s,
    AngularRateY: 41.0 deg/s,
    AngularRateZ: -143.5 deg/s
)
  vcan0  009   [8]  82 18 46 FC E7 78 18 18 ::
GnssImu(
    ImuValid: Invalid,
    AccelerationX: -55.875 m/s^2,
    AccelerationY: -39.625 m/s^2,
    AccelerationZ: 60.25 m/s^2,
    AngularRateX: -140.25 deg/s,
    AngularRateY: 135.5 deg/s,
    AngularRateZ: -208.0 deg/s
)
  vcan0  009   [8]  81 97 44 F4 D9 84 D8 08 ::
GnssImu(
    ImuValid: Valid,
    AccelerationX: 56.0 m/s^2,
    AccelerationY: -45.75 m/s^2,
    AccelerationZ: 52.25 m/s^2,
    AngularRateX: -147.25 deg/s,
    AngularRateY: 136.25 deg/s,
    AngularRateZ: -238.5 deg/s
)
  vcan0  009   [8]  81 39 48 F4 CB 10 14 08 ::
GnssImu(
    ImuValid: Valid,
    AccelerationX: -40.0 m/s^2,
    AccelerationY: -31.125 m/s^2,
    AccelerationZ: 52.25 m/s^2,
    AngularRateX: -154.25 deg/s,
    AngularRateY: 65.0 deg/s,
    AngularRateZ: -240.0 deg/s
)
  vcan0  009   [8]  81 77 CA F4 AC 40 1A 08 ::
GnssImu(
    ImuValid: Valid,
    AccelerationX: 56.0 m/s^2,
    AccelerationY: -22.25 m/s^2,
    AccelerationZ: 52.75 m/s^2,
    AngularRateX: -169.75 deg/s,
    AngularRateY: 164.0 deg/s,
    AngularRateZ: -240.0 deg/s
)
  vcan0  009   [8]  81 F6 40 FC 9D F0 18 07 ::
GnssImu(
    ImuValid: Valid,
    AccelerationX: 40.0 m/s^2,
    AccelerationY: -60.25 m/s^2,
    AccelerationZ: 60.25 m/s^2,
    AngularRateX: -177.25 deg/s,
    AngularRateY: 143.0 deg/s,
    AngularRateZ: -242.0 deg/s
)
  vcan0  009   [8]  82 98 CE F4 7F A0 18 07 ::
GnssImu(
    ImuValid: Invalid,
    AccelerationX: -55.875 m/s^2,
    AccelerationY: -5.625 m/s^2,
    AccelerationZ: 52.75 m/s^2,
    AngularRateX: -192.25 deg/s,
    AngularRateY: 138.0 deg/s,
    AngularRateZ: -242.0 deg/s
)
  vcan0  009   [8]  83 BA 48 F4 61 90 2A 07 ::
GnssImu(
    ImuValid: Valid,
    AccelerationX: -23.875 m/s^2,
    AccelerationY: -29.125 m/s^2,
    AccelerationZ: 52.25 m/s^2,
    AngularRateX: -207.25 deg/s,
    AngularRateY: -87.0 deg/s,
    AngularRateZ: -241.75 deg/s
)
  vcan0  009   [8]  85 39 4E F4 54 5C 22 16 ::
GnssImu(
    ImuValid: Valid,
    AccelerationX: -39.75 m/s^2,
    AccelerationY: -7.125 m/s^2,
    AccelerationZ: 52.25 m/s^2,
    AngularRateX: -213.75 deg/s,
    AngularRateY: -218.25 deg/s,
    AngularRateZ: -211.75 deg/s
)
  vcan0  009   [8]  85 9A C0 FC 65 C2 68 46 ::
GnssImu(
    ImuValid: Valid,
    AccelerationX: -23.75 m/s^2,
    AccelerationY: -61.625 m/s^2,
    AccelerationZ: 60.75 m/s^2,
    AngularRateX: 50.75 deg/s,
    AngularRateY: -116.0 deg/s,
    AngularRateZ: -115.25 deg/s
)
  vcan0  009   [8]  85 DC C0 FC 67 25 AA 65 ::
GnssImu(
    ImuValid: Valid,
    AccelerationX: 8.25 m/s^2,
    AccelerationY: -60.625 m/s^2,
    AccelerationZ: 60.75 m/s^2,
    AngularRateX: -76.25 deg/s,
    AngularRateY: -93.75 deg/s,
    AngularRateZ: -52.75 deg/s
)
  vcan0  009   [8]  85 DE 4A FC 58 06 62 85 ::
GnssImu(
    ImuValid: Valid,
    AccelerationX: 40.25 m/s^2,
    AccelerationY: -20.625 m/s^2,
    AccelerationZ: 60.25 m/s^2,
    AngularRateX: 44.25 deg/s,
    AngularRateY: -223.75 deg/s,
